Title: **.subckt gm_id_nmos
Date: Tue Jun  1 20:10:33  2021
Plotname: DC transfer characteristic
Flags: real
No. Variables: 7
No. Points: 181
Variables:
	0	v(v-sweep)	voltage
	1	@m.xm1.msky130_fd_pr__nfet_01v8[cgb]	capacitance
	2	@m.xm1.msky130_fd_pr__nfet_01v8[cgd]	capacitance
	3	@m.xm1.msky130_fd_pr__nfet_01v8[cgs]	capacitance
	4	@m.xm1.msky130_fd_pr__nfet_01v8[gds]	admittance
	5	@m.xm1.msky130_fd_pr__nfet_01v8[gm]	admittance
	6	i(@m.xm1.msky130_fd_pr__nfet_01v8[id])	current
Values:
 0	0.000000000000000e+00
	-8.949643023640091e-16
	1.107816266222269e-19
	-2.642889182271885e-17
	3.001503435927582e-14
	2.452113326294682e-12
	9.281250320020572e-14

 1	1.000000000000000e-02
	-8.889843439092126e-16
	1.190718730752803e-19
	-2.829801826980385e-17
	3.906953623505257e-14
	3.193480845651282e-12
	1.208774953186578e-13

 2	2.000000000000000e-02
	-8.830695647524088e-16
	1.280936285192065e-19
	-3.033148720059787e-17
	5.085483010460047e-14
	4.158930756311629e-12
	1.574273310694553e-13

 3	3.000000000000000e-02
	-8.772136346435260e-16
	1.379180752522722e-19
	-3.254514734368543e-17
	6.619420257839145e-14
	5.416163470698196e-12
	2.050264674172959e-13

 4	4.000000000000000e-02
	-8.714100277929488e-16
	1.486229092743174e-19
	-3.495628890520114e-17
	8.615899947301053e-14
	7.053318834950117e-12
	2.670140776777936e-13

 5	5.000000000000000e-02
	-8.656519973528091e-16
	1.602928218368531e-19
	-3.758374946604739e-17
	1.121432957980676e-13
	9.185140012704192e-12
	3.477379147756830e-13

 6	6.000000000000000e-02
	-8.599325497880984e-16
	1.730199972256786e-19
	-4.044802341085337e-17
	1.459610083091829e-13
	1.196099281403186e-11
	4.528586850191680e-13

 7	7.000000000000001e-02
	-8.542444193703554e-16
	1.869046226068159e-19
	-4.357137397366325e-17
	1.899721792961601e-13
	1.557529735322724e-11
	5.897461500135262e-13

 8	8.000000000000000e-02
	-8.485800431006873e-16
	2.020554042992773e-19
	-4.697794666526407e-17
	2.472471696344425e-13
	2.028109526571227e-11
	7.679945389236024e-13

 9	9.000000000000000e-02
	-8.429315364562159e-16
	2.185900830823305e-19
	-5.069388246438622e-17
	3.217801046636721e-13
	2.640769136645442e-11
	1.000093117305469e-12

 10	9.999999999999999e-02
	-8.372906704550420e-16
	2.366359390790947e-19
	-5.474742870518927e-17
	4.187662932002596e-13
	3.438358801968349e-11
	1.302298484362164e-12

 11	1.100000000000000e-01
	-8.316488506493087e-16
	2.563302743711968e-19
	-5.916904507410116e-17
	5.449627134378048e-13
	4.476629217450573e-11
	1.695769083979019e-12

 12	1.200000000000000e-01
	-8.259970987832124e-16
	2.778208587946404e-19
	-6.399150154131589e-17
	7.091563197719613e-13
	5.828104284122793e-11
	2.208040453533799e-12

 13	1.300000000000000e-01
	-8.203260379907148e-16
	3.012663213682610e-19
	-6.924996440120862e-17
	9.227722442933211e-13
	7.587111128488332e-11
	2.874943105993637e-12

 14	1.400000000000000e-01
	-8.146258825530240e-16
	3.268364665619357e-19
	-7.498206589255678e-17
	1.200663423442923e-12
	9.876310644851351e-11
	3.743095199422805e-12

 15	1.500000000000000e-01
	-8.088864333836936e-16
	3.547124912013765e-19
	-8.122795213110282e-17
	1.562135384888110e-12
	1.285517238746049e-10
	4.873141289907633e-12

 16	1.600000000000000e-01
	-8.030970805528606e-16
	3.850870743449721e-19
	-8.803030333899451e-17
	2.032275661147235e-12
	1.673096709393696e-10
	6.343959048156197e-12

 17	1.700000000000000e-01
	-7.972468142934201e-16
	4.181643091117052e-19
	-9.543431963209802e-17
	2.643677545579955e-12
	2.177301646576140e-10
	8.258121119433153e-12

 18	1.800000000000000e-01
	-7.913242460399863e-16
	4.541594423849252e-19
	-1.034876649700474e-16
	3.438673928495142e-12
	2.833115316431058e-10
	1.074898349566163e-11

 19	1.900000000000000e-01
	-7.853176411248140e-16
	4.932983858076725e-19
	-1.122403613381895e-16
	4.472230330723014e-12
	3.685961696968274e-10
	1.398988015611823e-11

 20	2.000000000000000e-01
	-7.792149647792210e-16
	5.358169598026679e-19
	-1.217446248762785e-16
	5.815688979102679e-12
	4.794796149064391e-10
	1.820604304593280e-11

 21	2.100000000000000e-01
	-7.730039430499389e-16
	5.819598318104550e-19
	-1.320546355645742e-16
	7.561610328647402e-12
	6.236098927001477e-10
	2.369004518863808e-11

 22	2.200000000000001e-01
	-7.666721401224104e-16
	6.319791108817269e-19
	-1.432262322971504e-16
	9.830027914323765e-12
	8.109029563129875e-10
	3.082179353325923e-11

 23	2.300000000000001e-01
	-7.602070533326462e-16
	6.861325635246719e-19
	-1.553165257880998e-16
	1.277652060953383e-11
	1.054207123910216e-09
	4.009439033692772e-11

 24	2.400000000000001e-01
	-7.535962268325952e-16
	7.446814206427420e-19
	-1.683834228437855e-16
	1.660261791427717e-11
	1.370158367804619e-09
	5.214755401817188e-11

 25	2.500000000000001e-01
	-7.468273844457292e-16
	8.078877527031448e-19
	-1.824850571349714e-16
	2.156919438197863e-11
	1.780279502243905e-09
	6.781076284017723e-11

 26	2.600000000000001e-01
	-7.398885816961095e-16
	8.760114003297423e-19
	-1.976791237995273e-16
	2.801368539032142e-11
	2.312390246784652e-09
	8.815888241155367e-11

 27	2.700000000000001e-01
	-7.327683763307660e-16
	9.493064601466542e-19
	-2.140221179581771e-16
	3.637217595697453e-11
	3.002412363416553e-09
	1.145837908652363e-10

 28	2.800000000000001e-01
	-7.254560158789825e-16
	1.028017341093450e-18
	-2.315684805734551e-16
	4.720768616619177e-11
	3.896675193926947e-09
	1.488864596808826e-10

 29	2.900000000000001e-01
	-7.179416399301728e-16
	1.112374424183596e-18
	-2.503696589341445e-16
	6.124631101558996e-11
	5.054852618367110e-09
	1.933951257636848e-10

 30	3.000000000000001e-01
	-7.102164938898429e-16
	1.202589378395518e-18
	-2.704730933186075e-16
	7.942327994092155e-11
	6.553693389711644e-09
	2.511166506295337e-10

 31	3.100000000000001e-01
	-7.022731500301788e-16
	1.298850206377202e-18
	-2.919211459288194e-16
	1.029414930782954e-10
	8.491743615078310e-09
	3.259299610250147e-10

 32	3.200000000000001e-01
	-6.941057307356524e-16
	1.401316115015453e-18
	-3.147499927973625e-16
	1.333456781703769e-10
	1.099530339577607e-08
	4.228326636797645e-10

 33	3.300000000000001e-01
	-6.857101280097296e-16
	1.510112326575971e-18
	-3.389885038144830e-16
	1.726160029981951e-10
	1.422590967918595e-08
	5.482545914549128e-10

 34	3.400000000000001e-01
	-6.770842126157556e-16
	1.625324964810093e-18
	-3.646571400307237e-16
	2.232857792278487e-10
	1.838969433273632e-08
	7.104552377335961e-10

 35	3.500000000000001e-01
	-6.682280257338173e-16
	1.746996165811471e-18
	-3.917669006738720e-16
	2.885888053661910e-10
	2.374903012669466e-08
	9.200258389522618e-10

 36	3.600000000000002e-01
	-6.591439457825944e-16
	1.875119574148608e-18
	-4.203183545878438e-16
	3.726429125243703e-10
	3.063694719978421e-08
	1.190521336571544e-09

 37	3.700000000000002e-01
	-6.498368231291109e-16
	2.009636389653096e-18
	-4.503007917890300e-16
	4.806773807802353e-10
	3.947487799973697e-08
	1.539252648274320e-09

 38	3.800000000000002e-01
	-6.403140758248498e-16
	2.150432128169648e-18
	-4.816915303209332e-16
	6.193130589660391e-10
	5.079436916355918e-08
	1.988275656265303e-09

 39	3.900000000000002e-01
	-6.305857402806810e-16
	2.297334249852697e-18
	-5.144554114190967e-16
	7.969052085150108e-10
	6.526348479390504e-08
	2.565620129895674e-09

 40	4.000000000000002e-01
	-6.206644719207965e-16
	2.450110790910034e-18
	-5.485445121116213e-16
	1.023960255968864e-09
	8.371871971937178e-08
	3.306809506279566e-09

 41	4.100000000000002e-01
	-6.105654923089770e-16
	2.608470109228308e-18
	-5.838980988201449e-16
	1.313638730077632e-09
	1.072033501180422e-07
	4.256731166020224e-09

 42	4.200000000000002e-01
	-6.003064809663885e-16
	2.772061821765487e-18
	-6.204428384475075e-16
	1.682357637294872e-09
	1.370132848599121e-07
	5.471926764925539e-09

 43	4.300000000000002e-01
	-5.899074120237598e-16
	2.940478973197468e-18
	-6.580932751127428e-16
	2.150506373661373e-09
	1.747516645093232e-07
	7.023383683529287e-09

 44	4.400000000000002e-01
	-5.793903378785393e-16
	3.113261432767584e-18
	-6.967525714939020e-16
	2.743290991713490e-09
	2.223937148441751e-07
	8.999922347696339e-09

 45	4.500000000000002e-01
	-5.687791240528986e-16
	3.289900471713752e-18
	-7.363135041215644e-16
	3.491722274715251e-09
	2.823637316353309e-07
	1.151229098598472e-08

 46	4.600000000000002e-01
	-5.580991413590960e-16
	3.469844429391706e-18
	-7.766596924395614e-16
	4.433763644279011e-09
	3.576265812709686e-07
	1.469810057414326e-08

 47	4.700000000000003e-01
	-5.473769231653440e-16
	3.652505334720204e-18
	-8.176670325418649e-16
	5.615655366510895e-09
	4.517967479751751e-07
	1.872775969141646e-08

 48	4.800000000000003e-01
	-5.366397969196320e-16
	3.837266313198760e-18
	-8.592052987114677e-16
	7.093431475956405e-09
	5.692686786660596e-07
	2.381160291289643e-08

 49	4.900000000000003e-01
	-5.259155000517697e-16
	4.023489580562566e-18
	-9.011398696715486e-16
	8.934644415793551e-09
	7.153727900840369e-07
	3.020844714592307e-08

 50	5.000000000000002e-01
	-5.152317908813917e-16
	4.210524803779809e-18
	-9.433335321596498e-16
	1.122030784324672e-08
	8.965616527828789e-07
	3.823585530494619e-08

 51	5.100000000000002e-01
	-5.046160651877107e-16
	4.397717599625021e-18
	-9.856483122748189e-16
	1.404705747448071e-08
	1.120629974182824e-06
	4.828242857216711e-08

 52	5.200000000000002e-01
	-4.940949886525281e-16
	4.584417940896079e-18
	-1.027947285109612e-15
	1.752950917100625e-08
	1.396969273024485e-06
	6.082247296675158e-08

 53	5.300000000000002e-01
	-4.836941545088706e-16
	4.769988250222904e-18
	-1.070096315401356e-15
	2.180275795261760e-08
	1.736852665688821e-06
	7.643337015572534e-08

 54	5.400000000000003e-01
	-4.734377744775057e-16
	4.953810980454840e-18
	-1.111965686123048e-15
	2.702490716225691e-08
	2.153736212464725e-06
	9.581589489959564e-08

 55	5.500000000000003e-01
	-4.633484095368900e-16
	5.135295507379187e-18
	-1.153431577770408e-15
	3.337944242260533e-08
	2.663550602624838e-06
	1.198175255713914e-07

 56	5.600000000000003e-01
	-4.534467453466208e-16
	5.313884193174413e-18
	-1.194377368187647e-15
	4.107717495551527e-08
	3.284941470493296e-06
	1.494584561380947e-07

 57	5.700000000000003e-01
	-4.437514153327675e-16
	5.489057515456826e-18
	-1.234694730660147e-15
	5.035738641330399e-08
	4.039400728572010e-06
	1.859595202794651e-07

 58	5.800000000000003e-01
	-4.342788726456930e-16
	5.660338194875895e-18
	-1.274284516220723e-15
	6.148773515486526e-08
	4.951219007345596e-06
	2.307705956284139e-07

 59	5.900000000000003e-01
	-4.250433105070917e-16
	5.827294291882750e-18
	-1.313057414223119e-15
	7.476246150300614e-08
	6.047185777394827e-06
	2.855973298569285e-07

 60	6.000000000000003e-01
	-4.160566289479279e-16
	5.989541278695933e-18
	-1.350934392836719e-15
	9.049848700640188e-08
	7.355974094874619e-06
	3.524233345665996e-07

 61	6.100000000000003e-01
	-4.073284446586567e-16
	6.146743124108068e-18
	-1.387846927888313e-15
	1.090291604960583e-07
	8.907174386636812e-06
	4.335244849936258e-07

 62	6.200000000000003e-01
	-3.988661396629683e-16
	6.298612455510299e-18
	-1.423737034185028e-15
	1.306956616637504e-07
	1.072998579740768e-05
	5.314718158471719e-07

 63	6.300000000000003e-01
	-3.906749438014779e-16
	6.444909883671537e-18
	-1.458557117953639e-15
	1.558364031614793e-07
	1.285162903857021e-05
	6.491198600520481e-07

 64	6.400000000000003e-01
	-3.827580455690542e-16
	6.585442591124780e-18
	-1.492269672270412e-15
	1.847751198559126e-07
	1.529560152949366e-05
	7.895782047137011e-07

 65	6.500000000000004e-01
	-3.751167256701080e-16
	6.720062294576691e-18
	-1.524846839356299e-15
	2.178086270972438e-07
	1.807994144755418e-05
	9.561654902262497e-07

 66	6.600000000000004e-01
	-3.677505077097668e-16
	6.848662695968526e-18
	-1.556269864463606e-15
	2.551953982821917e-07
	2.121569031853575e-05
	1.152346882820525e-06

 67	6.700000000000004e-01
	-3.606573206873031e-16
	6.971176536299332e-18
	-1.586528465918732e-15
	2.971461070488863e-07
	2.470573640565978e-05
	1.381657937181272e-06

 68	6.800000000000004e-01
	-3.538336683593740e-16
	7.087572361847894e-18
	-1.615620144879401e-15
	3.438170899525669e-07
	2.854418254982840e-05
	1.647619419731175e-06

 69	6.900000000000004e-01
	-3.472748010518470e-16
	7.197851104840696e-18
	-1.643549456695981e-15
	3.953073423882012e-07
	3.271631873642188e-05
	1.953648799026803e-06

 70	7.000000000000004e-01
	-3.409748860798299e-16
	7.302042570756539e-18
	-1.670327263618380e-15
	4.516592290561698e-07
	3.719920363790839e-05
	2.302974536809150e-06

 71	7.100000000000004e-01
	-3.349271735495412e-16
	7.400201913138349e-18
	-1.695969986135187e-15
	5.128626521756045e-07
	4.196278522021832e-05
	2.698558977283326e-06

 72	7.200000000000004e-01
	-3.291241549320096e-16
	7.492406164717940e-18
	-1.720498867624530e-15
	5.788620530243918e-07
	4.697143135354860e-05
	3.143034620179232e-06

 73	7.300000000000004e-01
	-3.235577123923415e-16
	7.578750881463216e-18
	-1.743939264367818e-15
	6.495653798078691e-07
	5.218570599924470e-05
	3.638657073594270e-06

 74	7.400000000000004e-01
	-3.182192574107775e-16
	7.659346944323998e-18
	-1.766319970433087e-15
	7.248540599470880e-07
	5.756421787163265e-05
	4.187276272945706e-06

 75	7.500000000000004e-01
	-3.130998577299643e-16
	7.734317552359625e-18
	-1.787672584554582e-15
	8.045930585978627e-07
	6.306538384989223e-05
	4.790325880431221e-06

 76	7.600000000000005e-01
	-3.081903520990472e-16
	7.803795430841315e-18
	-1.808030923974643e-15
	8.886402549822504e-07
	6.864898224266212e-05
	5.448829355116908e-06

 77	7.700000000000005e-01
	-3.034814526560107e-16
	7.867920268999666e-18
	-1.827430488307163e-15
	9.768545797481855e-07
	7.427741295470935e-05
	6.163420140498981e-06

 78	7.800000000000005e-01
	-2.989638350952720e-16
	7.926836394410127e-18
	-1.845907974844822e-15
	1.069102585932918e-06
	7.991662468527883e-05
	6.934372804352566e-06

 79	7.900000000000005e-01
	-2.946282170107892e-16
	7.980690684585810e-18
	-1.863500845365965e-15
	1.165263337572612e-06
	8.553670731491770e-05
	7.761641763382448e-06

 80	8.000000000000005e-01
	-2.904654249906522e-16
	8.029630711132584e-18
	-1.880246943391066e-15
	1.265231670623058e-06
	9.111217687179061e-05
	8.644904361267318e-06

 81	8.100000000000005e-01
	-2.864664511733201e-16
	8.073803107733268e-18
	-1.896184159974657e-15
	1.368920000581971e-06
	9.662199956018237e-05
	9.583605446618443e-06

 82	8.200000000000005e-01
	-2.826225000649818e-16
	8.113352150158115e-18
	-1.911350145473356e-15
	1.476258920466156e-06
	1.020494108099725e-04
	1.057700111708873e-05

 83	8.300000000000005e-01
	-2.789250264688011e-16
	8.148418534324498e-18
	-1.925782064276704e-15
	1.587196858930066e-06
	1.073815868713529e-04
	1.162419986902697e-05

 84	8.400000000000005e-01
	-2.753657653967453e-16
	8.179138337023913e-18
	-1.939516389198381e-15
	1.701699061998762e-06
	1.126092223497875e-04
	1.272419995048804e-05

 85	8.500000000000005e-01
	-2.719367548294968e-16
	8.205642143172609e-18
	-1.952588732073103e-15
	1.819746134329434e-06
	1.177260594646662e-04
	1.387592221334894e-05

 86	8.600000000000005e-01
	-2.686303521653034e-16
	8.228054323205119e-18
	-1.965033707064183e-15
	1.941332337013442e-06
	1.227284056108852e-04
	1.507823817274409e-05

 87	8.700000000000006e-01
	-2.654392451595171e-16
	8.246492444409090e-18
	-1.976884823234548e-15
	2.066463796384626e-06
	1.276146664276685e-04
	1.632999330060388e-05

 88	8.800000000000006e-01
	-2.623564581073066e-16
	8.261066800497092e-18
	-1.988174403049394e-15
	2.195156737420638e-06
	1.323849129730456e-04
	1.763002580815817e-05

 89	8.900000000000006e-01
	-2.593753539661701e-16
	8.271880044443803e-18
	-1.998933523643507e-15
	2.327435819274605e-06
	1.370404942855798e-04
	1.897718132043641e-05

 90	9.000000000000006e-01
	-2.564896330554390e-16
	8.279026910511808e-18
	-2.009191977885230e-15
	2.463332620727861e-06
	1.415837007853450e-04
	2.037032392818617e-05

 91	9.100000000000006e-01
	-2.536933289092170e-16
	8.282594012387041e-18
	-2.018978252489423e-15
	2.602884300188362e-06
	1.460174796013829e-04
	2.180834413413470e-05

 92	9.200000000000006e-01
	-2.509807998689586e-16
	8.282659742438532e-18
	-2.028319528376472e-15
	2.746132524213275e-06
	1.503452032998851e-04
	2.329016539850478e-05

 93	9.300000000000006e-01
	-2.483467285436791e-16
	8.279294037871252e-18
	-2.037241654237272e-15
	2.893122140424078e-06
	1.545704672865481e-04
	2.481474260944787e-05

 94	9.400000000000006e-01
	-2.457861001349590e-16
	8.272558564820703e-18
	-2.045769209385328e-15
	3.043900886411325e-06
	1.586969632496921e-04
	2.638107078954387e-05

 95	9.500000000000006e-01
	-2.432941995025373e-16
	8.262506559611958e-18
	-2.053925494857112e-15
	3.198518375956439e-06
	1.627283527623651e-04
	2.798818060719650e-05

 96	9.600000000000006e-01
	-2.408665973839429e-16
	8.249182886366303e-18
	-2.061732571872741e-15
	3.357025655076222e-06
	1.666681887625492e-04
	2.963513886461199e-05

 97	9.700000000000006e-01
	-2.384991380852393e-16
	8.232624075741727e-18
	-2.069211297402005e-15
	3.519474784084147e-06
	1.705198582545690e-04
	3.132104710587377e-05

 98	9.800000000000006e-01
	-2.361879268357692e-16
	8.212858376904520e-18
	-2.076381363834847e-15
	3.685918516082292e-06
	1.742865450997761e-04
	3.304503975630622e-05

 99	9.900000000000007e-01
	-2.339293169916245e-16
	8.189905817315670e-18
	-2.083261341689307e-15
	3.856410055927415e-06
	1.779712087145984e-04
	3.480628197260841e-05

 100	1.000000000000001e+00
	-2.317198972411919e-16
	8.163778265604205e-18
	-2.089868724442031e-15
	4.031002885486538e-06
	1.815765750749177e-04
	3.660396734432889e-05

 101	1.010000000000001e+00
	-2.295564789384851e-16
	8.134479493416664e-18
	-2.096219974703231e-15
	4.209750642869392e-06
	1.851051369916353e-04
	3.843731555409725e-05

 102	1.020000000000001e+00
	-2.274360836658369e-16
	8.102005232678625e-18
	-2.102330571079951e-15
	4.392707045155302e-06
	1.885591611478973e-04
	4.030557007634359e-05

 103	1.030000000000001e+00
	-2.253559311065266e-16
	8.066343225185058e-18
	-2.108215055179800e-15
	4.579925845836360e-06
	1.919406998601264e-04
	4.220799597156162e-05

 104	1.040000000000001e+00
	-2.233134272898623e-16
	8.027473261856554e-18
	-2.113887078302493e-15
	4.771460819727399e-06
	1.952516059370628e-04
	4.414387781488744e-05

 105	1.050000000000001e+00
	-2.213061532557468e-16
	7.985367209359638e-18
	-2.119359447449976e-15
	4.967365769434313e-06
	1.984935493633671e-04
	4.611251778334023e-05

 106	1.060000000000001e+00
	-2.193318541726553e-16
	7.939989022100176e-18
	-2.124644170358316e-15
	5.167694548618073e-06
	2.016680348300322e-04
	4.811323391484145e-05

 107	1.070000000000001e+00
	-2.173884289318433e-16
	7.891294737859589e-18
	-2.129752499317347e-15
	5.372501098261130e-06
	2.047764193780813e-04
	5.014535854363503e-05

 108	1.080000000000001e+00
	-2.154739202313899e-16
	7.839232455563189e-18
	-2.134694973597688e-15
	5.581839492944570e-06
	2.078199296206331e-04
	5.220823691040722e-05

 109	1.090000000000001e+00
	-2.135865051560180e-16
	7.783742293848867e-18
	-2.139481460350877e-15
	5.795763994804791e-06
	2.107996781676720e-04
	5.430122594089483e-05

 110	1.100000000000001e+00
	-2.117244862523611e-16
	7.724756329248984e-18
	-2.144121193887192e-15
	6.014329113372675e-06
	2.137166790036571e-04
	5.642369318366437e-05

 111	1.110000000000001e+00
	-2.098862830942728e-16
	7.662198512911799e-18
	-2.148622813268605e-15
	6.237589669927969e-06
	2.165718616659595e-04
	5.857501589575859e-05

 112	1.120000000000001e+00
	-2.080704243287632e-16
	7.595984564874104e-18
	-2.152994398181636e-15
	6.465600865342792e-06
	2.193660841469480e-04
	6.075458026377685e-05

 113	1.130000000000001e+00
	-2.062755401899450e-16
	7.526021844957416e-18
	-2.157243503077635e-15
	6.698418350657770e-06
	2.221001444986305e-04
	6.296178074748208e-05

 114	1.140000000000001e+00
	-2.045003554660046e-16
	7.452209199399112e-18
	-2.161377189586506e-15
	6.936098299843786e-06
	2.247747911597580e-04
	6.519601953302724e-05

 115	1.150000000000001e+00
	-2.027436829023892e-16
	7.374436782349113e-18
	-2.165402057225084e-15
	7.178697484365821e-06
	2.273907320543395e-04
	6.745670608325676e-05

 116	1.160000000000001e+00
	-2.010044170231836e-16
	7.292585851364739e-18
	-2.169324272433248e-15
	7.426273349288771e-06
