Title: **.subckt gm_id_nmos
Date: Sat Jun 12 17:25:41  2021
Plotname: DC transfer characteristic
Flags: real
No. Variables: 8
No. Points: 181
Variables:
	0	v(v-sweep)	voltage
	1	@m.xm1.msky130_fd_pr__nfet_01v8_lvt[cgb]	capacitance
	2	@m.xm1.msky130_fd_pr__nfet_01v8_lvt[cgd]	capacitance
	3	@m.xm1.msky130_fd_pr__nfet_01v8_lvt[cgs]	capacitance
	4	@m.xm1.msky130_fd_pr__nfet_01v8_lvt[gds]	admittance
	5	@m.xm1.msky130_fd_pr__nfet_01v8_lvt[gm]	admittance
	6	i(@m.xm1.msky130_fd_pr__nfet_01v8_lvt[id])	current
	7	v(@m.xm1.msky130_fd_pr__nfet_01v8_lvt[vth])	voltage
Values:
 0	0.000000000000000e+00
	-1.074155062170495e-15
	1.287406474941648e-22
	-1.411979929288208e-16
	3.475355117697083e-13
	2.853191830738364e-11
	1.022659908072617e-12
	5.471478173513024e-01

 1	1.000000000000000e-02
	-1.064908223611911e-15
	-8.209974158427923e-23
	-1.513810179715137e-16
	4.592884282397611e-13
	3.771050375803251e-11
	1.351742231647639e-12
	5.471478173513125e-01

 2	2.000000000000000e-02
	-1.055683436344618e-15
	-3.281744392989892e-22
	-1.622614107341021e-16
	6.069632721940994e-13
	4.984018669089034e-11
	1.786681616521649e-12
	5.471478173513281e-01

 3	3.000000000000000e-02
	-1.046470045968417e-15
	-6.137081225390282e-22
	-1.738795611861530e-16
	8.020999930655018e-13
	6.586896811935915e-11
	2.361509479511397e-12
	5.471478173513481e-01

 4	4.000000000000000e-02
	-1.037257452335600e-15
	-9.433374149014124e-22
	-1.862771828698123e-16
	1.059942224232026e-12
	8.704894892912048e-11
	3.121187446480940e-12
	5.471478173513724e-01

 5	5.000000000000000e-02
	-1.028035128220147e-15
	-1.322142139755624e-21
	-1.994972027707537e-16
	1.400624128517449e-12
	1.150336550045765e-10
	4.125112545274005e-12
	5.471478173514066e-01

 6	6.000000000000000e-02
	-1.018792643577875e-15
	-1.755677758813889e-21
	-2.135836221669003e-16
	1.850736619641003e-12
	1.520063948135507e-10
	5.451743694836055e-12
	5.471478173514509e-01

 7	7.000000000000001e-02
	-1.009519695774806e-15
	-2.250008819501493e-21
	-2.285813454245975e-16
	2.445393736417769e-12
	2.008494845307330e-10
	7.204706752869995e-12
	5.471478173515094e-01

 8	8.000000000000000e-02
	-1.000206146131765e-15
	-2.811743185421050e-21
	-2.445359737529742e-16
	3.230958142665749e-12
	2.653672620640306e-10
	9.520848473626173e-12
	5.471478173515866e-01

 9	9.000000000000000e-02
	-9.908420630867805e-16
	-3.448066770430310e-21
	-2.614935610556353e-16
	4.268634870452600e-12
	3.505798503462068e-10
	1.258085823405558e-11
	5.471478173516879e-01

 10	9.999999999999999e-02
	-9.814177722109863e-16
	-4.166778438904788e-21
	-2.795003292529344e-16
	5.639208187366031e-12
	4.631099079865435e-10
	1.662327120726195e-11
	5.471478173518222e-01

 11	1.100000000000000e-01
	-9.719239132256561e-16
	-4.976324673459565e-21
	-2.986023408064217e-16
	7.449282612013403e-12
	6.116914896125054e-10
	2.196292194699870e-11
	5.471478173520007e-01

 12	1.200000000000000e-01
	-9.623515040554050e-16
	-5.885833548024251e-21
	-3.188451266782652e-16
	9.839501786823139e-12
	8.078390997295109e-10
	2.901525141870253e-11
	5.471478173522349e-01

 13	1.300000000000000e-01
	-9.526920118134502e-16
	-6.905147480375422e-21
	-3.402732686198846e-16
	1.299536608668685e-11
	1.066726662132944e-09
	3.832830702212118e-11
	5.471478173525447e-01

 14	1.400000000000000e-01
	-9.429374304480126e-16
	-8.044854176158141e-21
	-3.629299355208091e-16
	1.716146169524872e-11
	1.408341200388902e-09
	5.062484451108183e-11
	5.471478173529546e-01

 15	1.500000000000000e-01
	-9.330803645838209e-16
	-9.316315118722486e-21
	-3.868563745714052e-16
	2.266016345087690e-11
	1.858995486558194e-09
	6.685768186710468e-11
	5.471478173534957e-01

 16	1.600000000000000e-01
	-9.231141188705310e-16
	-1.073169090888444e-20
	-4.120913592067504e-16
	2.991619761024960e-11
	2.453308951692999e-09
	8.828241772756128e-11
	5.471478173542083e-01

 17	1.700000000000000e-01
	-9.130327919027974e-16
	-1.230396271956287e-20
	-4.386705972004237e-16
	3.948886969325352e-11
	3.236798224580189e-09
	1.165528737156538e-10
	5.471478173551499e-01

 18	1.800000000000000e-01
	-9.028313735093671e-16
	-1.404694910615673e-20
	-4.666261038532889e-16
	5.211430290483312e-11
	4.269259552919575e-09
	1.538462299457812e-10
	5.471478173563924e-01

 19	1.900000000000000e-01
	-8.925058439269596e-16
	-1.597531740861827e-20
	-4.959855469480672e-16
	6.876072666651997e-11
	5.629177192642864e-09
	2.030268945728904e-10
	5.471478173580303e-01

 20	2.000000000000000e-01
	-8.820532730880400e-16
	-1.810458899985239e-20
	-5.267715719770850e-16
	9.070074215548554e-11
	7.419457125801838e-09
	2.678608031429955e-10
	5.471478173601892e-01

 21	2.100000000000000e-01
	-8.714719179705181e-16
	-2.045113768131628e-20
	-5.590011180435239e-16
	1.196056201562225e-10
	9.774867046728494e-09
	3.532952301349555e-10
	5.471478173630344e-01

 22	2.200000000000001e-01
	-8.607613156956323e-16
	-2.303218060417364e-20
	-5.926847367164299e-16
	1.576681122837995e-10
	1.287166460939665e-08
	4.658234921350519e-10
	5.471478173667813e-01

 23	2.300000000000001e-01
	-8.499223698328413e-16
	-2.586576120584842e-20
	-6.278259279020626e-16
	2.077620444133871e-10
	1.694001981154172e-08
	6.139593409910221e-10
	5.471478173717141e-01

 24	2.400000000000001e-01
	-8.389574271945535e-16
	-2.897072379893303e-20
	-6.644205083811735e-16
	2.736491825114274e-10
	2.227998742853561e-08
	8.088526311169951e-10
	5.471478173782048e-01

 25	2.500000000000001e-01
	-8.278703422960441e-16
	-3.236667963207923e-20
	-7.024560299463282e-16
	3.602465909159989e-10
	2.928196456226870e-08
	1.065086274691782e-09
	5.471478173867375e-01

 26	2.600000000000001e-01
	-8.166665266343715e-16
	-3.607396445892961e-20
	-7.419112649434420e-16
	4.739710129886461e-10
	3.845277876242213e-08
	1.401704874509215e-09
	5.471478173979467e-01

 27	2.700000000000001e-01
	-8.053529800198175e-16
	-4.011358789704416e-20
	-7.827557773676889e-16
	6.231807507252832e-10
	5.044879450808899e-08
	1.843538064050759e-09
	5.471478174126603e-01

 28	2.800000000000001e-01
	-7.939383013868351e-16
	-4.450717512784734e-20
	-8.249495973856381e-16
	8.187401274259299e-10
	6.611769873170389e-08
	2.422896802449731e-09
	5.471478174319538e-01

 29	2.900000000000001e-01
	-7.824326768268304e-16
	-4.927690177177574e-20
	-8.684430161721734e-16
	1.074736850501939e-09
	8.655092553410480e-08
	3.181738956413175e-09
	5.471478174572241e-01

 30	3.000000000000001e-01
	-7.708478430245315e-16
	-5.444542305916848e-20
	-9.131765162090144e-16
	1.409388317300639e-09
	1.131489995369740e-07
	4.174421686031486e-09
	5.471478174902809e-01

 31	3.100000000000001e-01
	-7.591970248384373e-16
	-6.003579869410269e-20
	-9.590808496748994e-16
	1.846178844729232e-09
	1.477024077072012e-07
	5.471182592333545e-09
	5.471478175334646e-01

 32	3.200000000000001e-01
	-7.474948464315811e-16
	-6.607141506125732e-20
	-1.006077274292063e-15
	2.415275460333545e-09
	1.924909425424290e-07
	7.162519348430933e-09
	5.471478175897875e-01

 33	3.300000000000001e-01
	-7.357572161110006e-16
	-7.257590664081838e-20
	-1.054077952053811e-15
	3.155274487342209e-09
	2.504047917331204e-07
	9.364668625539603e-09
	5.471478176631215e-01

 34	3.400000000000001e-01
	-7.240011858451115e-16
	-7.957307865948145e-20
	-1.102986511767124e-15
	4.115333541170157e-09
	3.250909896532902e-07
	1.222641956188483e-08
	5.471478177584206e-01

 35	3.500000000000001e-01
	-7.122447872630773e-16
	-8.708683310488296e-20
	-1.152698771470540e-15
	5.357742148268255e-09
	4.211292251651240e-07
	1.593753501827304e-08
	5.471478178820044e-01

 36	3.600000000000002e-01
	-7.005068467602786e-16
	-9.514110025689881e-20
	-1.203103611739358e-15
	6.960976956275782e-09
	5.442414805170325e-07
	2.073909609027731e-08
	5.471478180419007e-01

 37	3.700000000000002e-01
	-6.888067830977460e-16
	-1.037597778363393e-19
	-1.254083985901487e-15
	9.023271972116019e-09
	7.015406534572381e-07
	2.693613326942518e-08
	5.471478182482680e-01

 38	3.800000000000002e-01
	-6.771643915501335e-16
	-1.129666797384205e-19
	-1.305518048506093e-15
	1.166670775801548e-08
	9.018243010654364e-07
	3.491296379727737e-08
	5.471478185139045e-01

 39	3.900000000000002e-01
	-6.655996191892668e-16
	-1.227854961080590e-19
	-1.357280379256168e-15
	1.504178349440701e-08
	1.155921010432598e-06
	4.515172265558858e-08
	5.471478188548647e-01

 40	4.000000000000002e-01
	-6.541323362574615e-16
	-1.332397662345601e-19
	-1.409243276256695e-15
	1.933238049907254e-08
	1.477098558456987e-06
	5.825465784138332e-08
	5.471478192912058e-01

 41	4.100000000000002e-01
	-6.427821087649124e-16
	-1.443528654069293e-19
	-1.461278090024580e-15
	2.476095500584270e-08
	1.881544518159991e-06
	7.497086013833899e-08
	5.471478198478705e-01

 42	4.200000000000002e-01
	-6.315679774269425e-16
	-1.561480064934698e-19
	-1.513256568384247e-15
	3.159371424284527e-08
	2.388930211525189e-06
	9.622820709868501e-08
	5.471478205557611e-01

 43	4.300000000000002e-01
	-6.205082478403264e-16
	-1.686482566090016e-19
	-1.565052182201526e-15
	4.014543928821299e-08
	3.023065889377845e-06
	1.231713986781422e-07
	5.471478214529950e-01

 44	4.400000000000002e-01
	-6.096202963951159e-16
	-1.818765688293327e-19
	-1.616541402886302e-15
	5.078353138016619e-08
	3.812645683901305e-06
	1.572070008654758e-07
	5.471478225864135e-01

 45	4.500000000000002e-01
	-5.989203958522169e-16
	-1.958558285247264e-19
	-1.667604904655423e-15
	6.393079016435670e-08
	4.792061430659116e-06
	2.000563118947461e-07
	5.471478240133362e-01

 46	4.600000000000002e-01
	-5.884235638188026e-16
	-2.106089135299693e-19
	-1.718128667562258e-15
	8.006640056502004e-08
	6.002231388517661e-06
	2.538165036324299e-07
	5.471478258036022e-01

 47	4.700000000000003e-01
	-5.781434365615286e-16
	-2.261587670635569e-19
	-1.768004961091501e-15
	9.972462745010640e-08
	7.491341954698963e-06
	3.210297231391630e-07
	5.471478280418667e-01

 48	4.800000000000003e-01
	-5.680921697527400e-16
	-2.425284820632895e-19
	-1.817133192473736e-15
	1.234908077962038e-07
	9.315341396477811e-06
	4.047585308613785e-07
	5.471478308301169e-01

 49	4.900000000000003e-01
	-5.582803668894102e-16
	-2.597413954289452e-19
	-1.865420608562496e-15
	1.519943935471140e-07
	1.153796562108009e-05
	5.086641400805504e-07
	5.471478342902736e-01

 50	5.000000000000002e-01
	-5.487170352980006e-16
	-2.778211905565321e-19
	-1.912782844902422e-15
	1.858990268851321e-07
	1.423003658394359e-05
	6.370814990176543e-07
	5.471478385666941e-01

 51	5.100000000000002e-01
	-5.394095688755860e-16
	-2.967920065125989e-19
	-1.959144320280049e-15
	2.258899009620498e-07
	1.746777905958182e-05
	7.950826408300410e-07
	5.471478438282837e-01

 52	5.200000000000002e-01
	-5.303637560469252e-16
	-3.166785522267500e-19
	-2.004438479393271e-15
	2.726589388640668e-07
	2.132997420238096e-05
	9.885174841017516e-07
	5.471478502698502e-01

 53	5.300000000000002e-01
	-5.215838108591238e-16
	-3.375062241672038e-19
	-2.048607890143235e-15
	3.268885710680403e-07
	2.589391891092420e-05
	1.224020140030690e-06
	5.471478581123135e-01

 54	5.400000000000003e-01
	-5.130724247028138e-16
	-3.593012260995047e-19
	-2.091604205326125e-15
	3.892350684032924e-07
	3.123037579687765e-05
	1.508969510034663e-06
	5.471478676013994e-01

 55	5.500000000000003e-01
	-5.048308358455964e-16
	-3.820906897004948e-19
	-2.133388001110293e-15
	4.603124656848277e-07
	3.739793979698035e-05
	1.851396013819091e-06
	5.471478790045285e-01

 56	5.600000000000003e-01
	-4.968589137874456e-16
	-4.059027949972913e-19
	-2.173928506596372e-15
	5.406780793236209e-07
	4.443745393122008e-05
	2.259831637620454e-06
	5.471478926058241e-01

 57	5.700000000000003e-01
	-4.891552553897753e-16
	-4.307668898139622e-19
	-2.213203239985087e-15
	6.308204870144883e-07
	5.236721510112718e-05
	2.743107464352428e-06
	5.471479086993692e-01

 58	5.800000000000003e-01
	-4.817172897768056e-16
	-4.567136076261721e-19
	-2.251197567460759e-15
	7.311506210284511e-07
	6.117967724665668e-05
	3.310110216280193e-06
	5.471479275810984e-01

 59	5.900000000000003e-01
	-4.745413891431312e-16
	-4.837749834382627e-19
	-2.287904200905053e-15
	8.419963602533229e-07
	7.084017719732752e-05
	3.969515618911915e-06
	5.471479495399224e-01

 60	6.000000000000003e-01
	-4.676229828070268e-16
	-5.119845675006091e-19
	-2.323322650068512e-15
	9.636007244527728e-07
	8.128791420309056e-05
	4.729520244903252e-06
	5.471479748487924e-01

 61	6.100000000000003e-01
	-4.609566721067273e-16
	-5.413775368721063e-19
	-2.357458643938583e-15
	1.096123509018992e-06
	9.243907511919690e-05
	5.597594115525339e-06
	5.471480037564679e-01

 62	6.200000000000003e-01
	-4.545363440291236e-16
	-5.719908049995334e-19
	-2.390323534847056e-15
	1.239645974944713e-06
	1.041916908323279e-04
	6.580273667079203e-06
	5.471480364806155e-01

 63	6.300000000000003e-01
	-4.483552817710169e-16
	-6.038631296294949e-19
	-2.421933697447719e-15
	1.394178043485470e-06
	1.164315986953756e-04
	7.683009392162723e-06
	5.471480732027413e-01

 64	6.400000000000003e-01
	-4.424062707483335e-16
	-6.370352194889682e-19
	-2.452309933151706e-15
	1.559667345786126e-06
	1.290388026517469e-04
	8.910075686930886e-06
	5.471481140651839e-01

 65	6.500000000000004e-01
	-4.366816988768048e-16
	-6.715498402673383e-19
	-2.481476889007779e-15
	1.736009444172400e-06
	1.418935646925009e-04
	1.026454346688468e-05
	5.471481591702073e-01

 66	6.600000000000004e-01
	-4.311736502394035e-16
	-7.074519205072212e-19
	-2.509462498421601e-15
	1.923058566652185e-06
	1.548816981160487e-04
	1.174831007259695e-05
	5.471482085809910e-01

 67	6.700000000000004e-01
	-4.258739915243396e-16
	-7.447886580658416e-19
	-2.536297449573339e-15
	2.120638267364740e-06
	1.678987207762053e-04
	1.336217660713361e-05
	5.471482623242093e-01

 68	6.800000000000004e-01
	-4.207744508580778e-16
	-7.836096278455092e-19
	-2.562014685956527e-15
	2.328551528527381e-06
	1.808527213763754e-04
	1.510596041371212e-05
	5.471483203937778e-01

 69	6.900000000000004e-01
	-4.158666888679187e-16
	-8.239668915141421e-19
	-2.586648942151149e-15
	2.546589938651118e-06
	1.936659603714645e-04
	1.697862980800135e-05
	5.471483827553388e-01

 70	7.000000000000004e-01
	-4.111423619871988e-16
	-8.659151099471979e-19
	-2.610236316778099e-15
	2.774541703636656e-06
	2.062753501484978e-04
	1.897844905305404e-05
	5.471484493510849e-01

 71	7.100000000000004e-01
	-4.065931781636111e-16
	-9.095116591238655e-19
	-2.632813883569557e-15
	3.012198360782511e-06
	2.186320316926632e-04
	2.110312341594114e-05
	5.471485201045984e-01

 72	7.200000000000004e-01
	-4.022109452488404e-16
	-9.548167502065056e-19
	-2.654419340631684e-15
	3.259360163131594e-06
	2.307002919453176e-04
	2.334993648653364e-05
	5.471485949254159e-01

 73	7.300000000000004e-01
	-3.979876124380855e-16
	-1.001893554523194e-18
	-2.675090697267621e-15
	3.515840178813796e-06
	2.424560582239900e-04
	2.571587436577202e-05
	5.471486737131689e-01

 74	7.400000000000004e-01
	-3.939153051936854e-16
	-1.050808334163572e-18
	-2.694865997161431e-15
	3.781467206012416e-06
	2.538851757542884e-04
	2.819773355662443e-05
	5.471487563611733e-01

 75	7.500000000000004e-01
	-3.899863541310970e-16
	-1.101630578887371e-18
	-2.713783076285414e-15
	4.056087640093861e-06
	2.649816328044093e-04
	3.079221124885273e-05
	5.471488427594402e-01

 76	7.600000000000005e-01
	-3.861933183709520e-16
	-1.154433150035948e-18
	-2.731879353570242e-15
	4.339566448001907e-06
	2.757458538233287e-04
	3.349597811230103e-05
	5.471489327970972e-01

 77	7.700000000000005e-01
	-3.825290038708538e-16
	-1.209292432130127e-18
	-2.749191652155482e-15
	4.631787409684968e-06
	2.861831401641295e-04
	3.630573470877341e-05
	5.471490263642639e-01

 78	7.800000000000005e-01
	-3.789864772479283e-16
	-1.266288492833434e-18
	-2.765756048902281e-15
	4.932652780711480e-06
	2.963023036113144e-04
	3.921825325029394e-05
	5.471491233534510e-01

 79	7.900000000000005e-01
	-3.755590755904225e-16
	-1.325505251960397e-18
	-2.781607749786820e-15
	5.242082517691810e-06
	3.061145112041383e-04
	4.223040674352701e-05
	5.471492236605217e-01

 80	8.000000000000005e-01
	-3.722404127362944e-16
	-1.387030660212941e-18
	-2.796780988788756e-15
	5.560013191519679e-06
	3.156323405911458e-04
	4.533918764273533e-05
	5.471493271853191e-01

 81	8.100000000000005e-01
	-3.690243824708199e-16
	-1.450956888336931e-18
	-2.811308947931980e-15
	5.886396695038372e-06
	3.248690324332393e-04
	4.854171805740061e-05
	5.471494338320037e-01

 82	8.200000000000005e-01
	-3.659051590736443e-16
	-1.517380527224626e-18
	-2.825223549062955e-15
	6.221198832287851e-06
	3.338379035261114e-04
	5.183525337582815e-05
	5.471495435091729e-01

 83	8.300000000000005e-01
	-3.628771962900035e-16
	-1.586402783457347e-18
	-2.838554714254458e-15
	6.564397779788470e-06
	3.425518492710982e-04
	5.521718015622111e-05
	5.471496561297947e-01

 84	8.400000000000005e-01
	-3.599352226558530e-16
	-1.658129724299955e-18
	-2.851333292220987e-15
	6.915982741912781e-06
	3.510233664854586e-04
	5.868501231214932e-05
	5.471497716110754e-01

 85	8.500000000000005e-01
	-3.570742361093117e-16
	-1.732672522223388e-18
	-2.863587804888399e-15
	7.275952579852208e-06
	3.592640270273294e-04
	6.223638417102071e-05
	5.471498898742336e-01

 86	8.600000000000005e-01
	-3.542894979579493e-16
	-1.810147696970529e-18
	-2.875345564492076e-15
	7.644314436511079e-06
	3.672844821790778e-04
	6.586904124520716e-05
	5.471500108441898e-01

 87	8.700000000000006e-01
	-3.515765253124894e-16
	-1.890677382837776e-18
	-2.886632677281053e-15
	8.021082510063089e-06
	3.750944158551157e-04
	6.958083074684882e-05
	5.471501344492490e-01

 88	8.800000000000006e-01
	-3.489310827112760e-16
	-1.974389611870278e-18
	-2.897474055231202e-15
	8.406276936194167e-06
	3.827025441037128e-04
	7.336969187859750e-05
	5.471502606207818e-01

 89	8.900000000000006e-01
	-3.463491731364301e-16
	-2.061418613908483e-18
	-2.907893434456913e-15
	8.799922784726398e-06
	3.901166477298837e-04
	7.723364629505379e-05
	5.471503892929053e-01

 90	9.000000000000006e-01
	-3.438270285964761e-16
	-2.151905134475615e-18
	-2.917913399147522e-15
	9.202049171724124e-06
	3.973436274348562e-04
	8.117078901100642e-05
	5.471505204021792e-01

 91	9.100000000000006e-01
	-3.413611004262711e-16
	-2.245996771554506e-18
	-2.927555409984197e-15
	9.612688484797872e-06
	4.043895731266600e-04
	8.517927993811752e-05
	5.471506538873214e-01

 92	9.200000000000006e-01
	-3.389480494332240e-16
	-2.343848332363966e-18
	-2.936839836114285e-15
	1.003187571692163e-05
	4.112598409841292e-04
	8.925733615816496e-05
	5.471507896889583e-01

 93	9.300000000000006e-01
	-3.365847359991073e-16
	-2.445622211313849e-18
	-2.945785989872462e-15
	1.045964790246838e-05
	4.179591334615683e-04
	9.340322498508060e-05
	5.471509277493850e-01

 94	9.400000000000006e-01
	-3.342682102290976e-16
	-2.551488790389518e-18
	-2.954412163541491e-15
	1.089604364817226e-05
	4.244915787293436e-04
	9.761525782665984e-05
	5.471510680123680e-01

 95	9.500000000000006e-01
	-3.319957022239751e-16
	-2.661626863296126e-18
	-2.962735667539629e-15
	1.134110275120598e-05
	4.308608070913913e-04
	1.018917848272239e-04
	5.471512104229616e-01

 96	9.600000000000006e-01
	-3.297646125375360e-16
	-2.776224084775096e-18
	-2.970772869507263e-15
	1.179486589639470e-05
	4.370700227413023e-04
	1.062311902521969e-04
	5.471513549273578e-01

 97	9.700000000000006e-01
	-3.275725028690594e-16
	-2.895477446595471e-18
	-2.978539233842326e-15
	1.225737442467974e-05
	4.431220698508697e-04
	1.106318885624900e-04
	5.471515014727547e-01

 98	9.800000000000006e-01
	-3.254170870300580e-16
	-3.019593781816959e-18
	-2.986049361302943e-15
	1.272867016522076e-05
	4.490194924623537e-04
	1.150923211190273e-04
	5.471516500072433e-01

 99	9.900000000000007e-01
	-3.232962222153055e-16
	-3.148790299021713e-18
	-2.993317028357070e-15
	1.320879532392148e-05
	4.547645880080876e-04
	1.196109534543152e-04
	5.471518004797241e-01

 100	1.000000000000001e+00
	-3.212079006002178e-16
	-3.283295148319371e-18
	-3.000355226013206e-15
	1.369779242164008e-05
	4.603594545340217e-04
	1.241862730475442e-04
	5.471519528398239e-01

 101	1.010000000000001e+00
	-3.191502412798673e-16
	-3.423348021041642e-18
	-3.007176197914040e-15
	1.419570427586041e-05
	4.658060318788980e-04
