Title: **.subckt gm_id_nmos
Date: Wed Jun 16 15:44:50  2021
Plotname: DC transfer characteristic
Flags: real
No. Variables: 8
No. Points: 181
Variables:
	0	v(v-sweep)	voltage
	1	@m.xm1.msky130_fd_pr__nfet_01v8_lvt[cgb]	capacitance
	2	@m.xm1.msky130_fd_pr__nfet_01v8_lvt[cgd]	capacitance
	3	@m.xm1.msky130_fd_pr__nfet_01v8_lvt[cgs]	capacitance
	4	@m.xm1.msky130_fd_pr__nfet_01v8_lvt[gds]	admittance
	5	@m.xm1.msky130_fd_pr__nfet_01v8_lvt[gm]	admittance
	6	i(@m.xm1.msky130_fd_pr__nfet_01v8_lvt[id])	current
	7	v(@m.xm1.msky130_fd_pr__nfet_01v8_lvt[vth])	voltage
Values:
 0	0.000000000000000e+00
	-7.119119204340541e-14
	-1.294201683346586e-18
	-1.633331148219569e-14
	6.403846456372503e-13
	9.667726854517827e-11
	2.961476655562669e-12
	4.446342125148689e-01

 1	1.000000000000000e-02
	-7.043252591983850e-14
	-1.403982946587811e-18
	-1.768601190119191e-14
	8.875663578779272e-13
	1.339644621730675e-10
	4.104577618144324e-12
	4.446342125148735e-01

 2	2.000000000000000e-02
	-6.966600868894990e-14
	-1.522982620703342e-18
	-1.914164255528627e-14
	1.230062064388503e-12
	1.856113215213543e-10
	5.688463720252467e-12
	4.446342125148796e-01

 3	3.000000000000000e-02
	-6.889032061404926e-14
	-1.651939246507653e-18
	-2.070620840914072e-14
	1.704564877879751e-12
	2.571343522549177e-10
	7.882826289443018e-12
	4.446342125148888e-01

 4	4.000000000000000e-02
	-6.810415577363459e-14
	-1.791643522123577e-18
	-2.238576708896178e-14
	2.361855749904813e-12
	3.561608182237974e-10
	1.092250913916663e-11
	4.446342125149027e-01

 5	5.000000000000000e-02
	-6.730623173509203e-14
	-1.942940868464405e-18
	-2.418637388106624e-14
	3.272188454712231e-12
	4.932310537995480e-10
	1.513241426569689e-11
	4.446342125149196e-01

 6	6.000000000000000e-02
	-6.649530083820940e-14
	-2.106733945908114e-18
	-2.611401745864332e-14
	4.532717977417513e-12
	6.829024252214214e-10
	2.096185980205540e-11
	4.446342125149442e-01

 7	7.000000000000001e-02
	-6.567016311488781e-14
	-2.283985090294691e-18
	-2.817454601118314e-14
	6.277738332645696e-12
	9.452662975199306e-10
	2.903193500250810e-11
	4.446342125149780e-01

 8	8.000000000000000e-02
	-6.482968082642519e-14
	-2.475718633351226e-18
	-3.037358368609210e-14
	8.692777155563583e-12
	1.308029204747483e-09
	4.020070004098136e-11
	4.446342125150240e-01

 9	9.000000000000000e-02
	-6.397279454401055e-14
	-2.683023070080103e-18
	-3.271643755048643e-14
	1.203397539008186e-11
	1.809362740951050e-09
	5.565284418586514e-11
	4.446342125150886e-01

 10	9.999999999999999e-02
	-6.309854063157731e-14
	-2.907053033729005e-18
	-3.520799564480509e-14
	1.665469409191239e-11
	2.501797575003452e-09
	7.702279892999493e-11
	4.446342125151792e-01

 11	1.100000000000000e-01
	-6.220606991365393e-14
	-3.149031037932226e-18
	-3.785261712664466e-14
	2.304197934503259e-11
	3.457530482605918e-09
	1.065635029371804e-10
	4.446342125153022e-01

 12	1.200000000000000e-01
	-6.129466722597397e-14
	-3.410248945699897e-18
	-4.065401598593403e-14
	3.186643451257920e-11
	4.775635412146869e-09
	1.473772885919392e-10
	4.446342125154726e-01

 13	1.300000000000000e-01
	-6.036377145611646e-14
	-3.692069126382700e-18
	-4.361514033798918e-14
	4.405026339619590e-11
	6.591827279526434e-09
	2.037310257974316e-10
	4.446342125157077e-01

 14	1.400000000000000e-01
	-5.941299558925809e-14
	-3.995925264764905e-18
	-4.673804984887899e-14
	6.085983887484257e-11
	9.091627899201681e-09
	2.814851101666982e-10
	4.446342125160335e-01

 15	1.500000000000000e-01
	-5.844214618543498e-14
	-4.323322791240167e-18
	-5.002379439046744e-14
	8.403121218475351e-11
	1.252803452005858e-08
	3.886755873785634e-10
	4.446342125164821e-01

 16	1.600000000000000e-01
	-5.745124163577829e-14
	-4.675838908717326e-18
	-5.347229752596869e-14
	1.159396088960826e-10
	1.724509871358202e-08
	5.363011979819787e-10
	4.446342125170982e-01

 17	1.700000000000000e-01
	-5.644052848316982e-14
	-5.055122200557646e-18
	-5.708224885067538e-14
	1.598272566982620e-10
	2.370918924095140e-08
	7.393829854034358e-10
	4.446342125179470e-01

 18	1.800000000000000e-01
	-5.541049505520280e-14
	-5.462891814393905e-18
	-6.085100951282853e-14
	2.201079323034611e-10
	3.255013297898005e-08
	1.018383907008290e-09
	4.446342125191139e-01

 19	1.900000000000000e-01
	-5.436188165159674e-14
	-5.900936228974240e-18
	-6.477453537216597e-14
	3.027714181261750e-10
	4.461488884057205e-08
	1.401100108827624e-09
	4.446342125207132e-01

 20	2.000000000000000e-01
	-5.329568656073606e-14
	-6.371111624896913e-18
	-6.884732217808892e-14
	4.159165312531121e-10
	6.103688253825958e-08
	1.925164444651622e-09
	4.446342125229041e-01

 21	2.100000000000000e-01
	-5.221316725540711e-14
	-6.875339894832220e-18
	-7.306237683368433e-14
	5.704472454450364e-10
	8.332456950489964e-08
	2.641336347509843e-09
	4.446342125258977e-01

 22	2.200000000000001e-01
	-5.111583623811950e-14
	-7.415606344000035e-18
	-7.741121823758508e-14
	7.809720924823309e-10
	1.134731372696605e-07
	3.617789663318425e-09
	4.446342125299792e-01

 23	2.300000000000001e-01
	-5.000545117031037e-14
	-7.993957146624603e-18
	-8.188391036236783e-14
	1.066951492966890e-09
	1.541034368501810e-07
	4.945650227042754e-09
	4.446342125355301e-01

 24	2.400000000000001e-01
	-4.888399912212885e-14
	-8.612496638090154e-18
	-8.646912915651476e-14
	1.454139346038139e-09
	2.086321880282005e-07
	6.746075833667828e-09
	4.446342125430570e-01

 25	2.500000000000001e-01
	-4.775367501138572e-14
	-9.273384534813166e-18
	-9.115426359014673e-14
	1.976361829518949e-09
	2.814772299515973e-07
	9.179210507458684e-09
	4.446342125532278e-01

 26	2.600000000000001e-01
	-4.661685454905801e-14
	-9.978833183711289e-18
	-9.592554976748144e-14
	2.677664942741515e-09
	3.783011865454018e-07
	1.245538070371496e-08
	4.446342125669224e-01

 27	2.700000000000001e-01
	-4.547606225915094e-14
	-1.073110494995159e-17
	-1.007682355837267e-13
	3.614839348280417e-09
	5.062966474088841e-07
	1.684893315860448e-08
	4.446342125852891e-01

 28	2.800000000000001e-01
	-4.433393537590247e-14
	-1.153250985491366e-17
	-1.056667720047501e-13
	4.860293003387132e-09
	6.745162694283541e-07
	2.271514593347616e-08
	4.446342126098107e-01

 29	2.900000000000001e-01
	-4.319318462446542e-14
	-1.238540357572117e-17
	-1.106050257913812e-13
	6.505186341148000e-09
	8.942526086352977e-07
	3.051068415846084e-08
	4.446342126423974e-01

 30	3.000000000000001e-01
	-4.205655304719845e-14
	-1.329218591321461e-17
	-1.155665074673930e-13
	8.662671220331495e-09
	1.179475315464127e-06
	4.081813302449982e-08
	4.446342126854855e-01

 31	3.100000000000001e-01
	-4.092677413469526e-14
	-1.425529982703261e-17
	-1.205346076162957e-13
	1.147098761210348e-08
	1.547337124895185e-06
	5.437523560982653e-08
	4.446342127421574e-01

 32	3.200000000000001e-01
	-3.980653055136022e-14
	-1.527723112494649e-17
	-1.254928342390567e-13
	1.509608105286262e-08
	2.018762877209959e-06
	7.210959365556886e-08
	4.446342128162897e-01

 33	3.300000000000001e-01
	-3.869841470770771e-14
	-1.636050887937548e-17
	-1.304250439359197e-13
	1.973332591006522e-08
	2.619133470780689e-06
	9.517972671407879e-08
	4.446342129127288e-01

 34	3.400000000000001e-01
	-3.760489232910521e-14
	-1.750770662785367e-17
	-1.353156600829426e-13
	2.560789645820918e-08
	3.379062930815289e-06
	1.250234479527393e-07
	4.446342130374819e-01

 35	3.500000000000001e-01
	-3.652827001194161e-14
	-1.872144439698473e-17
	-1.401498719204681e-13
	3.297334291977054e-08
	4.335234899165998e-06
	1.634143548664188e-07
	4.446342131979638e-01

 36	3.600000000000002e-01
	-3.547066755578110e-14
	-2.000439157201524e-17
	-1.449138094943455e-13
	4.210802097647227e-08
	5.531210973430277e-06
	2.125266450874072e-07
	4.446342134032652e-01

 37	3.700000000000002e-01
	-3.443399562923959e-14
	-2.135927061741574e-17
	-1.495946906111351e-13
	5.330919598887207e-08
	7.018051302804343e-06
	2.750072422803559e-07
	4.446342136644481e-01

 38	3.800000000000002e-01
	-3.341993908445493e-14
	-2.278886163854434e-17
	-1.541809372963538e-13
	6.688488416011878e-08
	8.854513148057302e-06
	3.540522401380160e-07
	4.446342139948743e-01

 39	3.900000000000002e-01
	-3.242994599602330e-14
	-2.429600776121700e-17
	-1.586622605900694e-13
	8.314377024388948e-08
	1.110654283631706e-05
	4.534820443267788e-07
	4.446342144105133e-01

 40	4.000000000000002e-01
	-3.146522227919149e-14
	-2.588362129523306e-17
	-1.630297137942037e-13
	1.023838103603327e-07
	1.384578321359479e-05
	5.778067195435541e-07
	4.446342149302196e-01

 41	4.100000000000002e-01
	-3.052673155015686e-14
	-2.755469063992138e-17
	-1.672757154320917e-13
	1.248803421235704e-07
	1.714690820087825e-05
	7.322706420384892e-07
	4.446342155759143e-01

 42	4.200000000000002e-01
	-2.961519973629057e-14
	-2.931228788462308e-17
	-1.713940441422147e-13
	1.508746449213753e-07
	2.108377373419121e-05
	9.228644942690409e-07
	4.446342163726419e-01

 43	4.300000000000002e-01
	-2.873112383012242e-14
	-3.115957705468642e-17
	-1.753798084734478e-13
	1.805639001353125e-07
	2.572461563588290e-05
	1.156293703062052e-06
	4.446342173484326e-01

 44	4.400000000000002e-01
	-2.787478410874775e-14
	-3.309982295378205e-17
	-1.792293950666010e-13
	2.140933927280373e-07
	3.112677613892343e-05
	1.439896003890408e-06
	4.446342185339586e-01

 45	4.500000000000002e-01
	-2.704625910776147e-14
	-3.513640055588887e-17
	-1.829403990016731e-13
	2.515515870004760e-07
	3.733163210226723e-05
	1.781506666971588e-06
	4.446342199619758e-01

 46	4.600000000000002e-01
	-2.624544264148014e-14
	-3.727280490476695e-17
	-1.865115401808681e-13
	2.929684281116158e-07
	4.436046567449084e-05
	2.189277113242162e-06
	4.446342216665565e-01

 47	4.700000000000003e-01
	-2.547206219318160e-14
	-3.951266148472863e-17
	-1.899425695326354e-13
	3.383169037164156e-07
	5.221192809268515e-05
	2.671459739945669e-06
	4.446342236822006e-01

 48	4.800000000000003e-01
	-2.472569805370902e-14
	-4.185973703369032e-17
	-1.932341685961586e-13
	3.875175885218190e-07
	6.086151008410539e-05
	3.236177201974765e-06
	4.446342260428619e-01

 49	4.900000000000003e-01
	-2.400580265728946e-14
	-4.431795077738736e-17
	-1.963878457151262e-13
	4.404456303719959e-07
	7.026310298777254e-05
	3.891196927770393e-06
	4.446342287810092e-01

 50	5.000000000000002e-01
	-2.331171964341684e-14
	-4.689138607199563e-17
	-1.994058316697865e-13
	4.969394542393239e-07
	8.035239524016576e-05
	4.643730764522328e-06
	4.446342319267932e-01

 51	5.100000000000002e-01
	-2.264270225752540e-14
	-4.958430245090083e-17
	-2.022909771393408e-13
	5.568103804143600e-07
	9.105158066142569e-05
	5.500275664926052e-06
	4.446342355073701e-01

 52	5.200000000000002e-01
	-2.199793078627411e-14
	-5.240114807973535e-17
	-2.050466539401757e-13
	6.198523765691729e-07
	1.022747127425332e-04
	6.466505263476674e-06
	4.446342395464583e-01

 53	5.300000000000002e-01
	-2.137652880196518e-14
	-5.534657263196726e-17
	-2.076766615514168e-13
	6.858512731965865e-07
	1.139330370309225e-04
	7.547215409982137e-06
	4.446342440641050e-01

 54	5.400000000000003e-01
	-2.077757806236536e-14
	-5.842544060502318e-17
	-2.101851400342339e-13
	7.545929384224180e-07
	1.259397477230186e-04
	8.746320539862647e-06
	4.446342490766736e-01

 55	5.500000000000003e-01
	-2.020013197536127e-14
	-6.164284510422658e-17
	-2.125764900865935e-13
	8.258700971455827e-07
	1.382137972756628e-04
	1.006689310050183e-05
	4.446342545970075e-01

 56	5.600000000000003e-01
	-1.964322759165344e-14
	-6.500412212859904e-17
	-2.148553006572840e-13
	8.994876602617797e-07
	1.506825872640442e-04
	1.151123554392751e-05
	4.446342606347313e-01

 57	5.700000000000003e-01
	-1.910589613292552e-14
	-6.851486539883606e-17
	-2.170262842748132e-13
	9.752665806452806e-07
	1.632835433567432e-04
	1.308097358505928e-05
	4.446342671966413e-01

 58	5.800000000000003e-01
	-1.858717209796209e-14
	-7.218094177363095e-17
	-2.190942200278533e-13
	1.053046362547926e-06
	1.759647034301156e-04
	1.477716012965018e-05
	4.446342742871384e-01

 59	5.900000000000003e-01
	-1.808610101572980e-14
	-7.600850730589500e-17
	-2.210639039617309e-13
	1.132686418572145e-06
	1.886845193298463e-04
	1.660038096803840e-05
	4.446342819086707e-01

 60	6.000000000000003e-01
	-1.760174593340269e-14
	-8.000402399554258e-17
	-2.229401065259464e-13
	1.214066498500088e-06
	2.014110961208558e-04
	1.855085548784329e-05
	4.446342900621563e-01

 61	6.100000000000003e-01
	-1.713319273973005e-14
	-8.417427730027579e-17
	-2.247275366158718e-13
	1.297086415606801e-06
	2.141210808422734e-04
	2.062852786128501e-05
	4.446342987473608e-01

 62	6.200000000000003e-01
	-1.667955443108141e-14
	-8.852639447045201e-17
	-2.264308116922365e-13
	1.381665278059652e-06
	2.267983800318102e-04
	2.283314613110946e-05
	4.446343079632312e-01

 63	6.300000000000003e-01
	-1.623997442998029e-14
	-9.306786377863222e-17
	-2.280544334293643e-13
	1.467740404070258e-06
	2.394328437662431e-04
	2.516432820727332e-05
	4.446343177081700e-01

 64	6.400000000000003e-01
	-1.581362906491137e-14
	-9.780655471884290e-17
	-2.296027683322228e-13
	1.555266066258117e-06
	2.520190123735728e-04
	2.762161495345134e-05
	4.446343279802575e-01

 65	6.500000000000004e-01
	-1.539972931650940e-14
	-1.027507392551424e-16
	-2.310800327684675e-13
	1.644212177825575e-06
	2.645549854769675e-04
	3.020451131591980e-05
	4.446343387774251e-01

 66	6.600000000000004e-01
	-1.499752192964695e-14
	-1.079091142036941e-16
	-2.324902818806254e-13
	1.734563003437451e-06
	2.770414439444502e-04
	3.291251689197761e-05
	4.446343500975801e-01

 67	6.700000000000004e-01
	-1.460628998405953e-14
	-1.132908248373265e-16
	-2.338374018717636e-13
	1.826315952532902e-06
	2.894808339922140e-04
	3.574514752790937e-05
	4.446343619386997e-01

 68	6.800000000000004e-01
	-1.422535300849474e-14
	-1.189054898066443e-16
	-2.351251051923949e-13
	1.919480492565774e-06
	3.018767083340338e-04
	3.870194955188600e-05
	4.446343742988857e-01

 69	6.900000000000004e-01
	-1.385406671534649e-14
	-1.247632274770380e-16
	-2.363569281945206e-13
	2.014077204145602e-06
	3.142332105811025e-04
	4.178250814854060e-05
	4.446343871764044e-01

 70	7.000000000000004e-01
	-1.349182242466815e-14
	-1.308746837866830e-16
	-2.375362308586125e-13
	2.110136988674818e-06
	3.265546846694023e-04
	4.498645121888111e-05
	4.446344005697014e-01

 71	7.100000000000004e-01
	-1.313804623857092e-14
	-1.372510617366447e-16
	-2.386661982394873e-13
	2.207700431154281e-06
	3.388453896461667e-04
	4.831344987772843e-05
	4.446344144774024e-01

 72	7.200000000000004e-01
	-1.279219801949247e-14
	-1.439041526307889e-16
	-2.397498433162448e-13
	2.306817315658632e-06
	3.511093006332279e-04
	5.176321654537400e-05
	4.446344288983030e-01

 73	7.300000000000004e-01
	-1.245377021876461e-14
	-1.508463691901928e-16
	-2.407900109689508e-13
	2.407546287927020e-06
	3.633499784034841e-04
	5.533550140574796e-05
	4.446344438313598e-01

 74	7.400000000000004e-01
	-1.212228659540758e-14
	-1.580907806743323e-16
	-2.417893828399461e-13
	2.509954658031189e-06
	3.755704921861823e-04
	5.903008783836853e-05
	4.446344592756677e-01

 75	7.500000000000004e-01
	-1.179730085914896e-14
	-1.656511501494783e-16
	-2.427504828702287e-13
	2.614118335731960e-06
	3.877733826739648e-04
	6.284678728925320e-05
	4.446344752304378e-01

 76	7.600000000000005e-01
	-1.147839526633268e-14
	-1.735419740534752e-16
	-2.436756833311092e-13
	2.720121891575480e-06
	3.999606545002754e-04
	6.678543392730040e-05
	4.446344916949773e-01

 77	7.700000000000005e-01
	-1.116517919262863e-14
	-1.817785242155656e-16
	-2.445672111982115e-13
	2.828058737755654e-06
	4.121337895543218e-04
	7.084587933603528e-05
	4.446345086686651e-01

 78	7.800000000000005e-01
	-1.085728770225734e-14
	-1.903768925000113e-16
	-2.454271547389439e-13
	2.938031424093549e-06
	4.242937743378615e-04
	7.502798741369494e-05
	4.446345261509343e-01

 79	7.900000000000005e-01
	-1.055438012976940e-14
	-1.993540382532477e-16
	-2.462574702058942e-13
	3.050152046029353e-06
	4.364411361253101e-04
	7.933162959469859e-05
	4.446345441412441e-01

 80	8.000000000000005e-01
	-1.025613868722954e-14
	-2.087278387459246e-16
	-2.470599885473612e-13
	3.164542763203195e-06
	4.485759839752909e-04
	8.375668045979905e-05
	4.446345626390726e-01

 81	8.100000000000005e-01
	-9.962267106909754e-15
	-2.185171428138062e-16
	-2.478364220626321e-13
	3.281336428967310e-06
	4.606980516823784e-04
	8.830301376811367e-05
	4.446345816438907e-01

 82	8.200000000000005e-01
	-9.672489328019192e-15
	-2.287418278868049e-16
	-2.485883589605848e-13
	3.400677332672145e-06
	4.728067186359201e-04
	9.297049890667786e-05
	4.446346011551536e-01

 83	8.300000000000005e-01
	-9.386548298529921e-15
	-2.394228581175492e-16
	-2.493172139782955e-13
	3.522722030316271e-06
	4.849009414795283e-04
	9.775899663051579e-05
	4.446346211722773e-01

 84	8.400000000000005e-01
	-9.104204668559902e-15
	-2.505823520792878e-16
	-2.500244731431756e-13
	3.647640364695322e-06
	4.969797386878981e-04
	1.026683578064268e-04
	4.446346416946401e-01

 85	8.500000000000005e-01
	-8.825235616339908e-15
	-2.622436525371899e-16
	-2.507114378560107e-13
	3.775616589544211e-06
	5.090417508631004e-04
	1.076984214837530e-04
	4.446346627215676e-01

 86	8.600000000000005e-01
	-8.549433794982737e-15
	-2.744313980789289e-16
	-2.513793216668247e-13
	3.906850606268882e-06
	5.210854337829764e-04
	1.128490121688120e-04
	4.446346842523277e-01

 87	8.700000000000006e-01
	-8.276606291628582e-15
	-2.871716010462757e-16
	-2.520292557467075e-13
	4.041559372704711e-06
	5.331090870302448e-04
	1.181199381228003e-04
	4.446347062861175e-01

 88	8.800000000000006e-01
	-8.006573644370504e-15
	-3.004917305245156e-16
	-2.526622940981460e-13
	4.179978480256264e-06
	5.451108791254486e-04
	1.235109899284360e-04
	4.446347288220610e-01

 89	8.900000000000006e-01
	-7.739168916184644e-15
	-3.144208007298980e-16
	-2.532794185003574e-13
	4.322363916855753e-06
	5.570888692838540e-04
	1.290219392909172e-04
	4.446347518592065e-01

 90	9.000000000000006e-01
	-7.474236824612069e-15
	-3.289894651576115e-16
	-2.538815431895847e-13
	4.468994036093390e-06
	5.690410259729068e-04
	1.346525380402935e-04
	4.446347753965129e-01

 91	9.100000000000006e-01
	-7.211632925579952e-15
	-3.442301168760942e-16
	-2.544695192770687e-13
	4.620171756114059e-06
	5.809652424774475e-04
	1.404025173042561e-04
	4.446347994328585e-01

 92	9.200000000000006e-01
	-6.951222849472716e-15
	-3.601769953785577e-16
	-2.550441389096189e-13
	4.776227015508539e-06
	5.928593496917193e-04
	1.462715868225401e-04
	4.446348239670285e-01

 93	9.300000000000006e-01
	-6.692881587379014e-15
	-3.768663004284321e-16
	-2.556061391793719e-13
	4.937519517523806e-06
	6.047211263552337e-04
	1.522594343762775e-04
	4.446348489977196e-01

 94	9.400000000000006e-01
	-6.436492825305695e-15
	-3.943363133632263e-16
	-2.561562057906249e-13
	5.104441798560616e-06
	6.165483069380823e-04
	1.583657253077951e-04
	4.446348745235303e-01

 95	9.500000000000006e-01
	-6.181948324081788e-15
	-4.126275263498398e-16
	-2.566949764925364e-13
	5.277422662211422e-06
	6.283385873630886e-04
	1.645901021082933e-04
	4.446349005429686e-01

 96	9.600000000000006e-01
	-5.929147342638278e-15
	-4.317827801146732e-16
	-2.572230442871449e-13
	5.456931026124402e-06
	6.400896287296088e-04
	1.709321840526358e-04
	4.446349270544404e-01

 97	9.700000000000006e-01
	-5.677996102358213e-15
	-4.518474107031316e-16
	-2.577409604225306e-13
	5.643480235884188e-06
	6.517990591782142e-04
	1.773915668619626e-04
	4.446349540562578e-01

 98	9.800000000000006e-01
	-5.428407290220057e-15
	-4.728694058557065e-16
	-2.582492371811627e-13
	5.837632908016242e-06
	6.634644740082397e-04
	1.839678223761417e-04
	4.446349815466286e-01

 99	9.900000000000007e-01
	-5.180299598510800e-15
	-4.948995716216119e-16
	-2.587483504735051e-13
	6.040006373310506e-06
	6.750834341316165e-04
	1.906604982190128e-04
	4.446350095236622e-01

 100	1.000000000000001e+00
	-4.933597298955526e-15
	-5.179917098653202e-16
	-2.592387422468699e-13
	6.251278802104283e-06
	6.866534629172427e-04
	1.974691174400876e-04
	4.446350379853665e-01

 101	1.010000000000001e+00
	-4.688229849191990e-15
	-5.422028073569867e-16
	-2.597208227193175e-13
	6.472196105171613e-06
	6.981720414503184e-04
