Title: **.subckt gm_id_nmos
Date: Sat Jun 12 17:26:15  2021
Plotname: DC transfer characteristic
Flags: real
No. Variables: 8
No. Points: 181
Variables:
	0	v(v-sweep)	voltage
	1	@m.xm1.msky130_fd_pr__nfet_01v8_lvt[cgb]	capacitance
	2	@m.xm1.msky130_fd_pr__nfet_01v8_lvt[cgd]	capacitance
	3	@m.xm1.msky130_fd_pr__nfet_01v8_lvt[cgs]	capacitance
	4	@m.xm1.msky130_fd_pr__nfet_01v8_lvt[gds]	admittance
	5	@m.xm1.msky130_fd_pr__nfet_01v8_lvt[gm]	admittance
	6	i(@m.xm1.msky130_fd_pr__nfet_01v8_lvt[id])	current
	7	v(@m.xm1.msky130_fd_pr__nfet_01v8_lvt[vth])	voltage
Values:
 0	0.000000000000000e+00
	-2.003956520116756e-15
	-1.850087297873522e-20
	-3.595237001248965e-16
	5.994191181802447e-13
	5.247102500005964e-11
	1.882671623108032e-12
	5.208722804959438e-01

 1	1.000000000000000e-02
	-1.983814041279403e-15
	-2.007376629521078e-20
	-3.852224838019868e-16
	7.920126826764376e-13
	6.932847415413440e-11
	2.487762557067537e-12
	5.208722804959561e-01

 2	2.000000000000000e-02
	-1.963714183957804e-15
	-2.178108246411966e-20
	-4.126398458216613e-16
	1.046456094498415e-12
	9.159775081263576e-11
	3.287234185862613e-12
	5.208722804959754e-01

 3	3.000000000000000e-02
	-1.943631758474052e-15
	-2.363399172439129e-20
	-4.418697597337203e-16
	1.382596102584548e-12
	1.210141735536748e-10
	4.343480245162586e-12
	5.208722804959990e-01

 4	4.000000000000000e-02
	-1.923541958344850e-15
	-2.564451114347817e-20
	-4.730084449753738e-16
	1.826639802445260e-12
	1.598684277514312e-10
	5.738896435804605e-12
	5.208722804960307e-01

 5	5.000000000000000e-02
	-1.903420418533720e-15
	-2.782555565129653e-20
	-5.061539730873340e-16
	2.413188711956566e-12
	2.111837523006472e-10
	7.582279336653787e-12
	5.208722804960720e-01

 6	6.000000000000000e-02
	-1.883243288205465e-15
	-3.019099005886905e-20
	-5.414057950132566e-16
	3.187921161524992e-12
	2.789493727679846e-10
	1.001726558614361e-11
	5.208722804961274e-01

 7	7.000000000000001e-02
	-1.862987318562210e-15
	-3.275568169659250e-20
	-5.788641831869848e-16
	4.211128499516833e-12
	3.684278900140104e-10
	1.323345834619458e-11
	5.208722804961992e-01

 8	8.000000000000000e-02
	-1.842629966187185e-15
	-3.553555323881639e-20
	-6.186295826963424e-16
	5.562375167351961e-12
	4.865598342647964e-10
	1.748109143854675e-11
	5.208722804962960e-01

 9	9.000000000000000e-02
	-1.822149512118842e-15
	-3.854763521029403e-20
	-6.608018666900600e-16
	7.346637228130508e-12
	6.424957661878466e-10
	2.309034792385093e-11
	5.208722804964216e-01

 10	9.999999999999999e-02
	-1.801525196617476e-15
	-4.181011759746899e-20
	-7.054794924070062e-16
	9.702384463628246e-12
	8.482956367496969e-10
	3.049679832543551e-11
	5.208722804965887e-01

 11	1.100000000000000e-01
	-1.780737369266782e-15
	-4.534239991580093e-20
	-7.527585557946696e-16
	1.281221544959818e-11
	1.119847227258517e-09
	4.027487875014418e-11
	5.208722804968099e-01

 12	1.200000000000000e-01
	-1.759767653669714e-15
	-4.916513901581901e-20
	-8.027317446776241e-16
	1.691684303668345e-11
	1.478071164633017e-09
	5.318192239418651e-11
	5.208722804971000e-01

 13	1.300000000000000e-01
	-1.738599125552815e-15
	-5.330029384864268e-20
	-8.554871928595870e-16
	2.233347211503156e-11
	1.950500228896531e-09
	7.021602972161247e-11
	5.208722804974855e-01

 14	1.400000000000000e-01
	-1.717216502588543e-15
	-5.777116635991384e-20
	-9.111072404005020e-16
	2.947992855407144e-11
	2.573346663989828e-09
	9.269206435256791e-11
	5.208722804979911e-01

 15	1.500000000000000e-01
	-1.695606343687137e-15
	-6.260243764360729e-20
	-9.696671085889319e-16
	3.890630810479250e-11
	3.394204474502836e-09
	1.223413583927918e-10
	5.208722804986610e-01

 16	1.600000000000000e-01
	-1.673757254911148e-15
	-6.782019846865765e-20
	-1.031233501793250e-15
	5.133644221039740e-11
	4.475576067339846e-09
	1.614423842035228e-10
	5.208722804995417e-01

 17	1.700000000000000e-01
	-1.651660098540832e-15
	-7.345197329618148e-20
	-1.095863152351934e-15
	6.772215545666877e-11
	5.899466261910810e-09
	2.129918011086725e-10
	5.208722805007042e-01

 18	1.800000000000000e-01
	-1.629308201191374e-15
	-7.952673693840407e-20
	-1.163601328855956e-15
	8.931415506009708e-11
	7.773354201958348e-09
	2.809280406189990e-10
	5.208722805022370e-01

 19	1.900000000000000e-01
	-1.606697556277710e-15
	-8.607492307607518e-20
	-1.234480332444512e-15
	1.177544922227531e-10
	1.023793797529039e-08
	3.704231051761621e-10
	5.208722805042553e-01

 20	2.000000000000000e-01
	-1.583827015573342e-15
	-9.312842395327504e-20
	-1.308518009909225e-15
	1.551969222332204e-10
	1.347715100723389e-08
	4.882627067211718e-10
	5.208722805069126e-01

 21	2.100000000000000e-01
	-1.560698464150771e-15
	-1.007205807094646e-19
	-1.385716316274276e-15
	2.044632262579616e-10
	1.773107693954205e-08
	6.433404793631379e-10
	5.208722805104105e-01

 22	2.200000000000001e-01
	-1.537316972661782e-15
	-1.088861639895917e-19
	-1.466059962857666e-15
	2.692457100144010e-10
	2.331254409636924e-08
	8.472990158721254e-10
	5.208722805150092e-01

 23	2.300000000000001e-01
	-1.513690920754637e-15
	-1.176613446934181e-19
	-1.549515189371153e-15
	3.543687319566514e-10
	3.062836475371583e-08
	1.115359183474533e-09
	5.208722805210559e-01

 24	2.400000000000001e-01
	-1.489832085469609e-15
	-1.270836549818947e-19
	-1.636028700128785e-15
	4.661252998536295e-10
	4.020640041566203e-08
	1.467389879392191e-09
	5.208722805289945e-01

 25	2.500000000000001e-01
	-1.465755688735244e-15
	-1.371919399460436e-19
	-1.725526804661580e-15
	6.127085558300270e-10
	5.272988291676065e-08
	1.929283414642437e-09
	5.208722805394115e-01

 26	2.600000000000001e-01
	-1.441480398629967e-15
	-1.480263006544671e-19
	-1.817914801771509e-15
	8.047623558443060e-10
	6.908070121152744e-08
	2.534717387932615e-09
	5.208722805530643e-01

 27	2.700000000000001e-01
	-1.417028279887962e-15
	-1.596280296186210e-19
	-1.913076643139730e-15
	1.056080085620786e-09
	9.039367161396752e-08
	3.327402528488445e-09
	5.208722805709419e-01

 28	2.800000000000001e-01
	-1.392424690213362e-15
	-1.720395400379164e-19
	-2.010874907951772e-15
	1.384486182877989e-09
	1.181241391905020e-07
	4.363937798474856e-09
	5.208722805943183e-01

 29	2.900000000000001e-01
	-1.367698120302820e-15
	-1.853042904949953e-19
	-2.111151113619558e-15
	1.812940240250715e-09
	1.541316030277212e-07
	5.717419237945770e-09
	5.208722806248425e-01

 30	3.000000000000001e-01
	-1.342879977027653e-15
	-1.994667070498405e-19
	-2.213726379681705e-15
	2.370908506005003e-09
	2.007824129050287e-07
	7.481977729202260e-09
	5.208722806646382e-01

 31	3.100000000000001e-01
	-1.318004310938213e-15
	-2.145721049148129e-19
	-2.318402452569554e-15
	3.096051240039093e-09
	2.610749510735640e-07
	9.778453150177460e-09
	5.208722807164285e-01

 32	3.200000000000001e-01
	-1.293107491055667e-15
	-2.306666120663082e-19
	-2.424963088469064e-15
	4.036275496660726e-09
	3.387911066673716e-07
	1.276144845690939e-08
	5.208722807837023e-01

 33	3.300000000000001e-01
	-1.268227831727960e-15
	-2.477970972514708e-19
	-2.533175780415974e-15
	5.252199816795211e-09
	4.386783123646979e-07
	1.662804753863983e-08
	5.208722808709031e-01

 34	3.400000000000001e-01
	-1.243405178057519e-15
	-2.660111048704897e-19
	-2.642793804534013e-15
	6.820067864846542e-09
	5.666670160510776e-07
	2.162852624369439e-08
	5.208722809836760e-01

 35	3.500000000000001e-01
	-1.218680457967893e-15
	-2.853567991522824e-19
	-2.753558549512479e-15
	8.835129662567670e-09
	7.301293074069650e-07
	2.807943868599280e-08
	5.208722811291592e-01

 36	3.600000000000002e-01
	-1.194095210278162e-15
	-3.058829198937093e-19
	-2.865202083572965e-15
	1.141547895759220e-08
	9.381856176278915e-07
	3.637952380401252e-08
	5.208722813163460e-01

 37	3.700000000000002e-01
	-1.169691099123879e-15
	-3.276387518043568e-19
	-2.977449904820037e-15
	1.470629081318644e-08
	1.202067999451583e-06
	4.702895396788358e-08
	5.208722815565160e-01

 38	3.800000000000002e-01
	-1.145509425643679e-15
	-3.506741092001621e-19
	-3.090023814458500e-15
	1.888434298485790e-08
	1.535550305023478e-06
	6.065254153127498e-08
	5.208722818637602e-01

 39	3.900000000000002e-01
	-1.121590648007227e-15
	-3.750393374336605e-19
	-3.202644848237634e-15
	2.416262816255757e-08
	1.955457006536909e-06
	7.802763027290656e-08
	5.208722822556109e-01

 40	4.000000000000002e-01
	-1.097973920582223e-15
	-4.007853320528003e-19
	-3.315036199865139e-15
	3.079477483313593e-08
	2.482262117034963e-06
	1.001175169114444e-07
	5.208722827537898e-01

 41	4.100000000000002e-01
	-1.074696662342278e-15
	-4.279635762641479e-19
	-3.426926071085658e-15
	3.907889971868213e-08
	3.140785335312793e-06
	1.281113454113693e-07
	5.208722833851176e-01

 42	4.200000000000002e-01
	-1.051794163543210e-15
	-4.566261968589296e-19
	-3.538050386557849e-15
	4.936042692485199e-08
	3.960980771197667e-06
	1.634714370219115e-07
	5.208722841825717e-01

 43	4.300000000000002e-01
	-1.029299238304763e-15
	-4.868260383616456e-19
	-3.648155317359114e-15
	6.203334560564737e-08
	4.978790411542702e-06
	2.079888677102498e-07
	5.208722851865463e-01

 44	4.400000000000002e-01
	-1.007241929105048e-15
	-5.186167547982320e-19
	-3.756999564552056e-15
	7.753936020400349e-08
	6.236996548365076e-06
	2.638476496417942e-07
	5.208722864462945e-01

 45	4.500000000000002e-01
	-9.856492674141809e-16
	-5.520529181681828e-19
	-3.864356363315931e-15
	9.636443643572640e-08
	7.785954337998188e-06
	3.336969617176030e-07
	5.208722880215639e-01

 46	4.600000000000002e-01
	-9.645450928526508e-16
	-5.871901424541980e-19
	-3.970015178182444e-15
	1.190323783966835e-07
	9.684022970065749e-06
	4.207293760670004e-07
	5.208722899843516e-01

 47	4.700000000000003e-01
	-9.439499314475186e-16
	-6.240852218195613e-19
	-4.073783070395188e-15
	1.460952924832284e-07
	1.199745535779809e-05
	5.287609077679746e-07
	5.208722924207199e-01

 48	4.800000000000003e-01
	-9.238809318556109e-16
	-6.627962815308402e-19
	-4.175485728833849e-15
	1.781210903919197e-07
	1.479947400906621e-05
	6.623061200294718e-07
	5.208722954324827e-01

 49	4.900000000000003e-01
	-9.043518568945231e-16
	-7.033829400996741e-19
	-4.274968165846795e-15
	2.156785249587722e-07
	1.816828139219051e-05
	8.266388420835303e-07
	5.208722991385779e-01

 50	5.000000000000002e-01
	-8.853731264208385e-16
	-7.459064811578376e-19
	-4.372095088335148e-15
	2.593205903660549e-07
	2.218384877507660e-05
	1.027826950215401e-06
	5.208723036758489e-01

 51	5.100000000000002e-01
	-8.669519065541231e-16
	-7.904300336567537e-19
	-4.466750962227927e-15
	3.095673942936868e-07
	2.692350396296779e-05
	1.272728921205427e-06
	5.208723091989715e-01

 52	5.200000000000002e-01
	-8.490922394813533e-16
	-8.370187591067024e-19
	-4.558839794881023e-15
	3.668897690905824e-07
	3.245657507084324e-05
	1.568941221588723e-06
	5.208723158792652e-01

 53	5.300000000000002e-01
	-8.317952075893404e-16
	-8.857400447326927e-19
	-4.648284664817282e-15
	4.316948941414064e-07
	3.883859571346671e-05
	1.924689425763621e-06
	5.208723239022344e-01

 54	5.400000000000003e-01
	-8.150591254484016e-16
	-9.366637016119536e-19
	-4.735027031586720e-15
	5.043150422258728e-07
	4.610577004739548e-05
	2.348662050273323e-06
	5.208723334638260e-01

 55	5.500000000000003e-01
	-7.988797531836558e-16
	-9.898621670631998e-19
	-4.819025860428091e-15
	5.850002604254449e-07
	5.427047016232218e-05
	2.849793566765599e-06
	5.208723447655349e-01

 56	5.600000000000003e-01
	-7.832505249877799e-16
	-1.045410710771209e-18
	-4.900256596980226e-15
	6.739153998025968e-07
	6.331845656690647e-05
	3.437010506848468e-06
	5.208723580086736e-01

 57	5.700000000000003e-01
	-7.681627869129298e-16
	-1.103387644342854e-18
	-4.978710026692794e-15
	7.711414819659745e-07
	7.320828142343682e-05
	4.118960433414554e-06
	5.208723733882660e-01

 58	5.800000000000003e-01
	-7.536060385904420e-16
	-1.163874534197707e-18
	-5.054391052017942e-15
	8.766809996207212e-07
	8.387300402846210e-05
	4.903746550976445e-06
	5.208723910870584e-01

 59	5.900000000000003e-01
	-7.395681741260374e-16
	-1.226956417890788e-18
	-5.127317418132334e-15
	9.904664440837619e-07
	9.522399671553413e-05
	5.798690248059343e-06
	5.208724112701644e-01

 60	6.000000000000003e-01
	-7.260357180697964e-16
	-1.292722024143816e-18
	-5.197518415049382e-15
	1.112371165541813e-06
	1.071563266741034e-04
	6.810140104805632e-06
	5.208724340807585e-01

 61	6.100000000000003e-01
	-7.129940530321966e-16
	-1.361263997021393e-18
	-5.265033580726275e-15
	1.242221607594758e-06
	1.195550225614255e-04
	7.943339758727861e-06
	5.208724596370986e-01

 62	6.200000000000003e-01
	-7.004276361830869e-16
	-1.432679124829895e-18
	-5.329911426323785e-15
	1.379810002019498e-06
	1.323014956122783e-04
	9.202359800686614e-06
	5.208724880309827e-01

 63	6.300000000000003e-01
	-6.883202025078851e-16
	-1.507068574437074e-18
	-5.392208201288141e-15
	1.524906735112538e-06
	1.452794687626947e-04
	1.059009190033375e-05
	5.208725193276260e-01

 64	6.400000000000003e-01
	-6.766549532878488e-16
	-1.584538131813393e-18
	-5.451986712518615e-15
	1.677271770623484e-06
	1.583799349402651e-04
	1.210829768372510e-05
	5.208725535667557e-01

 65	6.500000000000004e-01
	-6.654147288075798e-16
	-1.665198449681234e-18
	-5.509315208657666e-15
	1.836664705015715e-06
	1.715048689672805e-04
	1.375770110395520e-05
	5.208725907646964e-01

 66	6.600000000000004e-01
	-6.545821647655412e-16
	-1.749165303229354e-18
	-5.564266337565379e-15
	2.002853213577899e-06
	1.845696132520326e-04
	1.553811129028036e-05
	5.208726309171433e-01

 67	6.700000000000004e-01
	-6.441398322692115e-16
	-1.836559854908474e-18
	-5.616916182363979e-15
	2.175619803870209e-06
	1.975040158104589e-04
	1.744856289450693e-05
	5.208726740023246e-01

 68	6.800000000000004e-01
	-6.340703616353524e-16
	-1.927508929374363e-18
	-5.667343379087924e-15
	2.354766917269373e-06
	2.102525061351163e-04
	1.948746231886901e-05
	5.208727199843000e-01

 69	6.900000000000004e-01
	-6.243565504901204e-16
	-2.022145299686272e-18
	-5.715628316960935e-15
	2.540120507772593e-06
	2.227733494706535e-04
	2.165273038102901e-05
	5.208727688161753e-01

 70	7.000000000000004e-01
	-6.149814568777399e-16
	-2.120607985908150e-18
	-5.761852420637216e-15
	2.731532282229744e-06
	2.350373315454402e-04
	2.394193446641811e-05
	5.208728204430904e-01

 71	7.100000000000004e-01
	-6.059284782456462e-16
	-2.223042567295384e-18
	-5.806097512375969e-15
	2.928880813051606e-06
	2.470261062428767e-04
	2.635240566123230e-05
	5.208728748048514e-01

 72	7.200000000000004e-01
	-5.971814172846569e-16
	-2.329601509285248e-18
	-5.848445251041056e-15
	3.132071739580134e-06
	2.587304008921081e-04
	2.888133850546271e-05
	5.208729318381869e-01

 73	7.300000000000004e-01
	-5.887245356714719e-16
	-2.440444506546158e-18
	-5.888976644005088e-15
	3.341037264080543e-06
	2.701482286318306e-04
	3.152587272839142e-05
	5.208729914785923e-01

 74	7.400000000000004e-01
	-5.805425967940859e-16
	-2.555738843379411e-18
	-5.927771627457023e-15
	3.555735128364015e-06
	2.812832124794578e-04
	3.428315759654013e-05
	5.208730536617721e-01

 75	7.500000000000004e-01
	-5.726208985448365e-16
	-2.675659772809760e-18
	-5.964908710233383e-15
	3.776147231949665e-06
	2.921430861339783e-04
	3.715040034661255e-05
	5.208731183247424e-01

 76	7.600000000000005e-01
	-5.649452972466505e-16
	-2.800390915748544e-18
	-6.000464676085154e-15
	4.002278025857442e-06
	3.027384044615462e-04
	4.012490065907373e-05
	5.208731854066037e-01

 77	7.700000000000005e-01
	-5.575022237407039e-16
	-2.930124681665138e-18
	-6.034514339224550e-15
	4.234152789961510e-06
	3.130814725625546e-04
	4.320407333059525e-05
	5.208732548490518e-01

 78	7.800000000000005e-01
	-5.502786926129528e-16
	-3.065062712261035e-18
	-6.067130348042417e-15
	4.471815877820038e-06
	3.231854856802220e-04
	4.638546130359667e-05
	5.208733265966716e-01

 79	7.900000000000005e-01
	-5.432623054767485e-16
	-3.205416349706278e-18
	-6.098383032022577e-15
	4.715328991833089e-06
	3.330638617932561e-04
	4.966674107695704e-05
	5.208734005970614e-01

 80	8.000000000000005e-01
	-5.364412491623246e-16
	-3.351407131069610e-18
	-6.128340287083274e-15
	4.964769533771395e-06
	3.427297431646010e-04
	5.304572230904688e-05
	5.208734768008219e-01

 81	8.100000000000005e-01
	-5.298042895942637e-16
	-3.503267310653729e-18
	-6.157067494828805e-15
	5.220229061132677e-06
	3.521956410766338e-04
	5.652034317428126e-05
	5.208735551614536e-01

 82	8.200000000000005e-01
	-5.233407620843032e-16
	-3.661240411605354e-18
	-6.184627161706522e-15
	5.481811867477457e-06
	3.614731816305579e-04
	6.008866276724692e-05
	5.208736356351811e-01

 83	8.300000000000005e-01
	-5.170405601077451e-16
	-3.825581770023647e-18
	-6.211077434830193e-15
	5.749633634195804e-06
	3.705728785074443e-04
	6.374885075821034e-05
	5.208737181807265e-01

 84	8.400000000000005e-01
	-5.108941180944252e-16
	-3.996559200329542e-18
	-6.236478309124490e-15
	6.023820365629658e-06
	3.795044043466784e-04
	6.749917798832262e-05
	5.208738027590881e-01

 85	8.500000000000005e-01
	-5.048923941250868e-16
	-4.174453663571457e-18
	-6.260884840225706e-15
	6.304507401413115e-06
	3.882762121006364e-04
	7.133800585847107e-05
	5.208738893333138e-01

 86	8.600000000000005e-01
	-4.990268525613181e-16
	-4.359559934046426e-18
	-6.284349536997201e-15
	6.591838496482445e-06
	3.968956836280118e-04
	7.526377491191246e-05
	5.208739778682304e-01

 87	8.700000000000006e-01
	-4.932894446055387e-16
	-4.552187330446801e-18
	-6.306922406329062e-15
	6.885965065278912e-06
	4.053691833387493e-04
	7.927499437268925e-05
	5.208740683302150e-01

 88	8.800000000000006e-01
	-4.876725881518281e-16
	-4.752660489826120e-18
	-6.328651008754542e-15
	7.187045541183679e-06
	4.137021302370425e-04
	8.337023231970458e-05
	5.208741606869752e-01

 89	8.900000000000006e-01
	-4.821691472165996e-16
	-4.961320187048953e-18
	-6.349580522764177e-15
	7.495244842020353e-06
	4.218990808152696e-04
	8.754810664101886e-05
	5.208742549073370e-01

 90	9.000000000000006e-01
	-4.767724111948636e-16
	-5.178524202550292e-18
	-6.369753815949762e-15
	7.810733932326864e-06
	4.299638170665278e-04
	9.180727684680668e-05
	5.208743509610678e-01

 91	9.100000000000006e-01
	-4.714760741487972e-16
	-5.404648241408005e-18
	-6.389211521342977e-15
	8.133689473310547e-06
	4.378994353761419e-04
	9.614643676983187e-05
	5.208744488187100e-01

 92	9.200000000000006e-01
	-4.662742143007178e-16
	-5.640086906917200e-18
	-6.407992117525970e-15
	8.464293551841356e-06
	4.457084332559244e-04
	1.005643081461404e-04
	5.208745484514327e-01

 93	9.300000000000006e-01
	-4.611612738717202e-16
	-5.885254732056306e-18
	-6.426132011284830e-15
	8.802733480424865e-06
	4.533927918373393e-04
	1.050596350432644e-04
	5.208746498309098e-01

 94	9.400000000000006e-01
	-4.561320393802553e-16
	-6.140587272445969e-18
	-6.443665621751543e-15
	9.149201660765227e-06
	4.609540527798914e-04
	1.096311790862668e-04
	5.208747529292124e-01

 95	9.500000000000006e-01
	-4.511816224912015e-16
	-6.406542264628279e-18
	-6.460625465137152e-15
	9.503895504230764e-06
	4.683933888155568e-04
	1.142777154214693e-04
	5.208748577187148e-01

 96	9.600000000000006e-01
	-4.463054414855016e-16
	-6.683600853733929e-18
	-6.477042239298668e-15
	9.867017403239362e-06
	4.757116675718215e-04
	1.189980293521339e-04
	5.208749641720203e-01

 97	9.700000000000006e-01
	-4.414992034026757e-16
	-6.972268894859274e-18
	-6.492944907506904e-15
	1.023877474826510e-05
	4.829095086234533e-04
	1.237909135784164e-04
	5.208750722619019e-01

 98	9.800000000000006e-01
	-4.367588868933725e-16
	-7.273078332744195e-18
	-6.508360780892081e-15
	1.061937998581832e-05
	4.899873339407038e-04
	1.286551659745756e-04
	5.208751819612449e-01

 99	9.900000000000007e-01
	-4.320807258061752e-16
	-7.586588664628907e-18
	-6.523315599140522e-15
	1.100905071335253e-05
	4.969454120493060e-04
	1.335895878388698e-04
	5.208752932430148e-01

 100	1.000000000000001e+00
	-4.274611935220374e-16
	-7.913388491467431e-18
	-6.537833609100145e-15
	1.140800980761685e-05
	5.037838963118628e-04
	1.385929825552597e-04
	5.208754060802244e-01

 101	1.010000000000001e+00
	-4.228969880405858e-16
	-8.254097162995488e-18
	-6.551937641025566e-15
	1.181648558347419e-05
	5.105028577941627e-04
